 (1787061814.650825)  can0  7DF   [8]  02 01 0B 00 00 00 00 00
 (1787061814.651457)  can0  7E8   [8]  03 41 0B 1E 00 00 00 00
 (1787061814.655152)  can0  430   [7]  99 86 00 00 2A 3F 60
 (1787061814.657259)  can0  200   [7]  02 0B 02 03 02 0B 00
 (1787061814.657471)  can0  201   [8]  0A DB 7D C8 27 10 00 64
 (1787061814.658313)  can0  210   [7]  FF FF 30 A0 90 00 89
 (1787061814.658538)  can0  4B0   [8]  27 10 27 10 27 10 27 10
 (1787061814.662293)  can0  230   [8]  F0 01 1A 00 61 00 00 00
 (1787061814.662431)  can0  231   [4]  01 00 FF FF
 (1787061814.667267)  can0  200   [7]  02 0B 02 03 02 0B 00
 (1787061814.667474)  can0  201   [8]  0A DB 7D C8 27 10 00 64
 (1787061814.672341)  can0  210   [7]  FF FF 30 A0 90 00 8A
 (1787061814.672545)  can0  4B0   [8]  27 10 27 10 27 10 27 10
 (1787061814.677265)  can0  200   [7]  02 0B 02 03 02 0B 00
 (1787061814.677473)  can0  201   [8]  0A DE 7D C8 27 10 00 64
 (1787061814.686380)  can0  210   [7]  FF FF 30 A0 90 00 8B
 (1787061814.686555)  can0  4B0   [8]  27 10 27 10 27 10 27 10
 (1787061814.687267)  can0  200   [7]  02 0B 02 03 02 0B 00
 (1787061814.687493)  can0  201   [8]  0A DE 7D C8 27 10 00 64
 (1787061814.687734)  can0  230   [8]  F0 01 1A 00 61 00 00 00
 (1787061814.687905)  can0  231   [4]  01 00 FF FF
 (1787061814.688138)  can0  420   [7]  83 FB 00 00 00 00 00
 (1787061814.697264)  can0  200   [7]  02 0B 02 03 02 0B 00
 (1787061814.697462)  can0  201   [8]  0A DE 7D 3C 27 10 00 64
 (1787061814.700349)  can0  210   [7]  FF FF 30 A0 90 00 8C
 (1787061814.700568)  can0  4B0   [8]  27 10 27 10 27 10 27 10
 (1787061814.700916)  can0  7DF   [8]  02 01 10 00 00 00 00 00
 (1787061814.701477)  can0  7E8   [8]  04 41 10 00 9D 00 00 00
 (1787061814.705174)  can0  430   [7]  99 86 00 00 2A 3F 60
 (1787061814.707264)  can0  200   [7]  02 0B 02 03 02 0B 00
 (1787061814.707465)  can0  201   [8]  0A DE 7D 3C 27 10 00 64
 (1787061814.712297)  can0  230   [8]  F0 01 1A 00 61 00 00 00
 (1787061814.712439)  can0  231   [4]  01 00 FF FF
 (1787061814.714358)  can0  210   [7]  FF FF 30 A0 90 00 8D
 (1787061814.714570)  can0  4B0   [8]  27 10 27 10 27 10 27 10
 (1787061814.717251)  can0  200   [7]  02 0B 02 03 02 0B 00
 (1787061814.717464)  can0  201   [8]  0A DE 7D 3C 27 10 00 64
 (1787061814.727270)  can0  200   [7]  02 0B 02 03 02 0B 00
 (1787061814.727468)  can0  201   [8]  0A DF 7D 50 27 10 00 64
 (1787061814.728341)  can0  210   [7]  FF FF 30 A0 90 00 8E
 (1787061814.728582)  can0  4B0   [8]  27 10 27 10 27 10 27 10
 (1787061814.737281)  can0  200   [7]  02 0B 02 03 02 0B 00
 (1787061814.737469)  can0  201   [8]  0A DF 7D 50 27 10 00 64
 (1787061814.737706)  can0  230   [8]  F0 01 1A 00 61 00 00 00
 (1787061814.737876)  can0  231   [4]  01 00 FF FF
 (1787061814.742387)  can0  210   [7]  FF FF 30 A0 90 00 8F
 (1787061814.742594)  can0  4B0   [8]  27 10 27 10 27 10 27 10
 (1787061814.747292)  can0  200   [7]  02 0B 02 03 02 0B 00
 (1787061814.747494)  can0  201   [8]  0A DF 7D 14 27 10 00 64
 (1787061814.751499)  can0  7DF   [8]  02 01 0B 00 00 00 00 00
 (1787061814.751880)  can0  7E8   [8]  03 41 0B 1E 00 00 00 00
 (1787061814.755160)  can0  430   [7]  99 87 00 00 2A 3F 60
 (1787061814.756377)  can0  210   [7]  FF FF 30 A0 90 00 90
 (1787061814.756599)  can0  4B0   [8]  27 10 27 10 27 10 27 10
 (1787061814.757252)  can0  200   [7]  02 0B 02 03 02 0B 00
 (1787061814.757489)  can0  201   [8]  0A DF 7D 14 27 10 00 64
 (1787061814.762303)  can0  230   [8]  F0 01 1A 00 61 00 00 00
 (1787061814.762435)  can0  231   [4]  01 00 FF FF
 (1787061814.767260)  can0  200   [7]  02 0B 02 03 02 0B 00
 (1787061814.767463)  can0  201   [8]  0A D8 7D 14 27 10 00 64
 (1787061814.770385)  can0  210   [7]  FF FF 30 A0 90 00 91
 (1787061814.770601)  can0  4B0   [8]  27 10 27 10 27 10 27 10
 (1787061814.777271)  can0  200   [7]  02 0B 02 03 02 0B 00
 (1787061814.777475)  can0  201   [8]  0A D8 7C 74 27 10 00 64
 (1787061814.784432)  can0  210   [7]  FF FF 30 A0 90 00 92
 (1787061814.784624)  can0  4B0   [8]  27 10 27 10 27 10 27 10
 (1787061814.787259)  can0  200   [7]  02 0B 02 03 02 0B 00
 (1787061814.787465)  can0  201   [8]  0A D8 7C 74 27 10 00 64
 (1787061814.787699)  can0  230   [8]  F0 01 1A 00 61 00 00 00
 (1787061814.787868)  can0  231   [4]  01 00 FF FF
 (1787061814.788099)  can0  420   [7]  83 FB 00 00 00 00 00
 (1787061814.797261)  can0  200   [7]  02 0B 02 03 02 0B 00
 (1787061814.797460)  can0  201   [8]  0A D8 7C 74 27 10 00 64
 (1787061814.798415)  can0  210   [7]  FF FF 30 A0 90 00 93
 (1787061814.798626)  can0  4B0   [8]  27 10 27 10 27 10 27 10
 (1787061814.800832)  can0  7DF   [8]  02 01 10 00 00 00 00 00
 (1787061814.801197)  can0  7DF   [8]  02 01 42 00 00 00 00 00
 (1787061814.801449)  can0  7E8   [8]  04 41 10 00 A1 00 00 00
 (1787061814.805167)  can0  430   [7]  96 88 00 00 2A 3F 60
 (1787061814.807260)  can0  200   [7]  02 0B 02 03 02 0B 00
 (1787061814.807461)  can0  201   [8]  0A DB 7C 74 27 10 00 64
 (1787061814.812281)  can0  230   [8]  F0 01 1A 00 61 00 00 00
 (1787061814.812472)  can0  210   [7]  FF FF 30 A0 90 00 94
 (1787061814.812642)  can0  231   [4]  01 00 FF FF
 (1787061814.812885)  can0  4B0   [8]  27 10 27 10 27 10 27 10
 (1787061814.817340)  can0  200   [7]  02 0B 02 03 02 0B 00
 (1787061814.817471)  can0  201   [8]  0A DB 7C 74 27 10 00 64
 (1787061814.826439)  can0  210   [7]  FF FF 30 A0 90 00 95
 (1787061814.826644)  can0  4B0   [8]  27 10 27 10 27 10 27 10
 (1787061814.827249)  can0  200   [7]  02 0B 02 03 02 0B 00
 (1787061814.827476)  can0  201   [8]  0A DB 7D 3C 27 10 00 64
 (1787061814.837262)  can0  200   [7]  02 0B 02 03 02 0B 00
 (1787061814.837459)  can0  201   [8]  0A DB 7D 3C 27 10 00 64
 (1787061814.837695)  can0  230   [8]  F0 01 1A 00 61 00 00 00
 (1787061814.837866)  can0  231   [4]  01 00 FF FF
 (1787061814.840448)  can0  210   [7]  FF FF 30 A0 90 00 96
 (1787061814.840651)  can0  4B0   [8]  27 10 27 10 27 10 27 10
 (1787061814.847276)  can0  200   [7]  02 0B 02 03 02 0B 00
 (1787061814.847471)  can0  201   [8]  0A DB 7D 78 27 10 00 64
 (1787061814.851522)  can0  7DF   [8]  02 01 0B 00 00 00 00 00
 (1787061814.851893)  can0  7E8   [8]  03 41 0B 1E 00 00 00 00
 (1787061814.854470)  can0  210   [7]  FF FF 30 A0 90 00 97
 (1787061814.854658)  can0  4B0   [8]  27 10 27 10 27 10 27 10
 (1787061814.855128)  can0  430   [7]  96 86 00 00 2A 3F 60
 (1787061814.857236)  can0  200   [7]  02 0B 02 03 02 0B 00
 (1787061814.857448)  can0  201   [8]  0A DE 7D 78 27 10 00 64
 (1787061814.862299)  can0  230   [8]  F0 01 1A 00 61 00 00 00
 (1787061814.862426)  can0  231   [4]  01 00 FF FF
 (1787061814.867238)  can0  200   [7]  02 0B 02 03 02 0B 00
 (1787061814.867470)  can0  201   [8]  0A DE 7D 78 27 10 00 64
 (1787061814.868430)  can0  210   [7]  FF FF 30 A0 90 00 98
 (1787061814.868659)  can0  4B0   [8]  27 10 27 10 27 10 27 10
 (1787061814.877267)  can0  200   [7]  02 0B 02 03 02 0B 00
 (1787061814.877461)  can0  201   [8]  0A DE 7D 3C 27 10 00 64
 (1787061814.882474)  can0  210   [7]  FF FF 30 A0 90 00 99
 (1787061814.882679)  can0  4B0   [8]  27 10 27 10 27 10 27 10
 (1787061814.887272)  can0  200   [7]  02 0B 02 03 02 0B 00
 (1787061814.887467)  can0  201   [8]  0A DE 7D 3C 27 10 00 64
 (1787061814.887708)  can0  230   [8]  F0 01 1A 00 61 00 00 00
 (1787061814.887872)  can0  231   [4]  01 00 FF FF
 (1787061814.888118)  can0  420   [7]  83 FB 00 00 00 00 00
 (1787061814.896504)  can0  210   [7]  FF FF 30 A0 90 00 9A
 (1787061814.896686)  can0  4B0   [8]  27 10 27 10 27 10 27 10
 (1787061814.897261)  can0  200   [7]  02 0B 02 03 02 0B 00
 (1787061814.897485)  can0  201   [8]  0A DA 7C B0 27 10 00 64
 (1787061814.901395)  can0  7DF   [8]  02 01 10 00 00 00 00 00
 (1787061814.901765)  can0  7E8   [8]  04 41 10 00 9D 00 00 00
 (1787061814.905148)  can0  430   [7]  96 86 00 00 2A 3F 60
 (1787061814.907231)  can0  200   [7]  02 0B 02 03 02 0B 00
 (1787061814.907451)  can0  201   [8]  0A DA 7C B0 27 10 00 64
 (1787061814.910481)  can0  210   [7]  FF FF 30 A0 90 00 9B
 (1787061814.910687)  can0  4B0   [8]  27 10 27 10 27 10 27 10
 (1787061814.912245)  can0  230   [8]  F0 01 1A 00 61 00 00 00
 (1787061814.912413)  can0  231   [4]  01 00 FF FF
 (1787061814.917309)  can0  200   [7]  02 0B 02 03 02 0B 00
 (1787061814.917448)  can0  201   [8]  0A DA 7C B0 27 10 00 64
 (1787061814.924496)  can0  210   [7]  FF FF 30 A0 90 00 9C
 (1787061814.924699)  can0  4B0   [8]  27 10 27 10 27 10 27 10
 (1787061814.927232)  can0  200   [7]  02 0B 02 03 02 0B 00
 (1787061814.927464)  can0  201   [8]  0A DA 7C B0 27 10 00 64
 (1787061814.937254)  can0  200   [7]  02 0B 02 03 02 0B 00
 (1787061814.937450)  can0  201   [8]  0A D8 7C B0 27 10 00 64
 (1787061814.937683)  can0  230   [8]  F0 01 1A 00 61 00 00 00
 (1787061814.937854)  can0  231   [4]  01 00 FF FF
 (1787061814.938471)  can0  210   [7]  FF FF 30 A0 90 00 9D
 (1787061814.938701)  can0  4B0   [8]  27 10 27 10 27 10 27 10
 (1787061814.947255)  can0  200   [7]  02 0B 02 03 02 0B 00
 (1787061814.947448)  can0  201   [8]  0A D8 7C D8 27 10 00 64
 (1787061814.952513)  can0  210   [7]  FF FF 30 A0 90 00 9E
 (1787061814.952720)  can0  4B0   [8]  27 10 27 10 27 10 27 10
 (1787061814.952965)  can0  7DF   [8]  02 01 0B 00 00 00 00 00
 (1787061814.953562)  can0  7E8   [8]  03 41 0B 1E 00 00 00 00
 (1787061814.955134)  can0  430   [7]  96 87 00 00 2A 3F 60
 (1787061814.957248)  can0  200   [7]  02 0B 02 03 02 0B 00
 (1787061814.957451)  can0  201   [8]  0A D8 7C D8 27 10 00 64
 (1787061814.962251)  can0  230   [8]  F0 01 1A 00 61 00 00 00
 (1787061814.962397)  can0  231   [4]  01 00 FF FF
 (1787061814.966497)  can0  210   [7]  FF FF 30 A0 90 00 9F
 (1787061814.966718)  can0  4B0   [8]  27 10 27 10 27 10 27 10
 (1787061814.967252)  can0  200   [7]  02 0B 02 03 02 0B 00
 (1787061814.967474)  can0  201   [8]  0A D8 7C D8 27 10 00 64
 (1787061814.977243)  can0  200   [7]  02 0B 02 03 02 0B 00
 (1787061814.977448)  can0  201   [8]  0A D8 7C D8 27 10 00 64
 (1787061814.980506)  can0  210   [7]  FF FF 30 A0 90 00 A0
 (1787061814.980729)  can0  4B0   [8]  27 10 27 10 27 10 27 10
 (1787061814.987288)  can0  200   [7]  02 0B 02 03 02 0B 00
 (1787061814.987452)  can0  201   [8]  0A DD 7C D8 27 10 00 64
 (1787061814.987694)  can0  230   [8]  F0 01 1A 00 61 00 00 00
 (1787061814.987871)  can0  231   [4]  01 00 FF FF
 (1787061814.988092)  can0  420   [7]  83 FB 00 00 00 00 00
 (1787061814.994532)  can0  210   [7]  FF FF 30 A0 90 00 A1
 (1787061814.994736)  can0  4B0   [8]  27 10 27 10 27 10 27 10
 (1787061814.997226)  can0  200   [7]  02 0B 02 03 02 0B 00
 (1787061814.997437)  can0  201   [8]  0A DD 7D 64 27 10 00 64
 (1787061815.001319)  can0  7DF   [8]  02 01 10 00 00 00 00 00
 (1787061815.001706)  can0  7E8   [8]  04 41 10 00 9A 00 00 00
 (1787061815.005148)  can0  430   [7]  96 86 00 00 2A 3F 60
 (1787061815.007226)  can0  200   [7]  02 0B 02 03 02 0B 00
 (1787061815.007439)  can0  201   [8]  0A DD 7D 64 27 10 00 64
 (1787061815.008527)  can0  210   [7]  FF FF 30 A0 90 00 A2
 (1787061815.008741)  can0  4B0   [8]  27 10 27 10 27 10 27 10
 (1787061815.012269)  can0  230   [8]  F0 01 1A 00 61 00 00 00
 (1787061815.012441)  can0  231   [4]  01 00 FF FF
 (1787061815.017255)  can0  200   [7]  02 0B 02 03 02 0B 00
 (1787061815.017452)  can0  201   [8]  0A DD 7D 64 27 10 00 64
 (1787061815.022553)  can0  210   [7]  FF FF 30 A0 90 00 A3
 (1787061815.022758)  can0  4B0   [8]  27 10 27 10 27 10 27 10
 (1787061815.027241)  can0  200   [7]  02 0B 02 03 02 0B 00
 (1787061815.027456)  can0  201   [8]  0A DE 7D 78 27 10 00 64
 (1787061815.036583)  can0  210   [7]  FF FF 30 A0 90 00 A4
 (1787061815.036771)  can0  4B0   [8]  27 10 27 10 27 10 27 10
 (1787061815.037242)  can0  200   [7]  02 0B 02 03 02 0B 00
 (1787061815.037464)  can0  201   [8]  0A DE 7D 78 27 10 00 64
 (1787061815.037698)  can0  230   [8]  F0 01 1A 00 61 00 00 00
 (1787061815.037868)  can0  231   [4]  01 00 FF FF
 (1787061815.047246)  can0  200   [7]  02 0B 02 03 02 0B 00
 (1787061815.047441)  can0  201   [8]  0A DE 7D 14 27 10 00 64
 (1787061815.050595)  can0  210   [7]  FF FF 30 A0 90 00 A5
 (1787061815.050782)  can0  4B0   [8]  27 10 27 10 27 10 27 10
 (1787061815.051181)  can0  7DF   [8]  02 01 0B 00 00 00 00 00
 (1787061815.051578)  can0  7E8   [8]  03 41 0B 1E 00 00 00 00
 (1787061815.055152)  can0  430   [7]  99 87 00 00 2A 3F 60
 (1787061815.057234)  can0  200   [7]  02 0B 02 03 02 0B 00
 (1787061815.057444)  can0  201   [8]  0A DE 7D 14 27 10 00 64
 (1787061815.062249)  can0  230   [8]  F0 01 1A 00 61 00 00 00
 (1787061815.062391)  can0  231   [4]  01 00 FF FF
 (1787061815.064558)  can0  210   [7]  FF FF 30 A0 90 00 A6
 (1787061815.064782)  can0  4B0   [8]  27 10 27 10 27 10 27 10
 (1787061815.067242)  can0  200   [7]  02 0B 02 03 02 0B 00
 (1787061815.067444)  can0  201   [8]  0A D8 7D 14 27 10 00 64
 (1787061815.077228)  can0  200   [7]  02 0B 02 03 02 0B 00
 (1787061815.077434)  can0  201   [8]  0A D8 7C 88 27 10 00 64
 (1787061815.078554)  can0  210   [7]  FF FF 30 A0 90 00 A7
 (1787061815.078786)  can0  4B0   [8]  27 10 27 10 27 10 27 10
 (1787061815.087250)  can0  200   [7]  02 0B 02 03 02 0B 00
 (1787061815.087440)  can0  201   [8]  0A D8 7C 88 27 10 00 64
 (1787061815.087680)  can0  230   [8]  F0 01 1A 00 61 00 00 00
 (1787061815.087852)  can0  231   [4]  01 00 FF FF
 (1787061815.088079)  can0  420   [7]  83 FB 00 00 00 00 00
 (1787061815.088319)  can0  620   [8]  0D 40 12 1E 10 00 01 20
 (1787061815.088562)  can0  630   [8]  84 01 9F 00 00 00 4F 4F
 (1787061815.092605)  can0  210   [7]  FF FF 30 A0 90 00 A8
 (1787061815.092799)  can0  4B0   [8]  27 10 27 10 27 10 27 10
 (1787061815.097278)  can0  200   [7]  02 0B 02 03 02 0B 00
 (1787061815.097452)  can0  201   [8]  0A D8 7C 88 27 10 00 64
 (1787061815.101692)  can0  7DF   [8]  02 01 10 00 00 00 00 00
 (1787061815.102034)  can0  7E8   [8]  04 41 10 00 9F 00 00 00
 (1787061815.105175)  can0  430   [7]  98 87 00 00 2A 3F 60
 (1787061815.106613)  can0  210   [7]  FF FF 30 A0 90 00 A9
 (1787061815.106804)  can0  4B0   [8]  27 10 27 10 27 10 27 10
 (1787061815.107257)  can0  200   [7]  02 0B 02 03 02 0B 00
 (1787061815.107462)  can0  201   [8]  0A D8 7C 88 27 10 00 64
 (1787061815.112276)  can0  230   [8]  F0 01 1A 00 61 00 00 00
 (1787061815.112403)  can0  231   [4]  01 00 FF FF
 (1787061815.117240)  can0  200   [7]  02 0B 02 03 02 0B 00
 (1787061815.117438)  can0  201   [8]  0A D8 7C 88 27 10 00 64
 (1787061815.120623)  can0  210   [7]  FF FF 30 A0 90 00 AA
 (1787061815.120814)  can0  4B0   [8]  27 10 27 10 27 10 27 10
 (1787061815.127242)  can0  200   [7]  02 0B 02 03 02 0B 00
 (1787061815.127440)  can0  201   [8]  0A D8 7D 00 27 10 00 64
 (1787061815.134648)  can0  210   [7]  FF FF 30 A0 90 00 AB
 (1787061815.134826)  can0  4B0   [8]  27 10 27 10 27 10 27 10
 (1787061815.137231)  can0  200   [7]  02 0B 02 03 02 0B 00
 (1787061815.137443)  can0  201   [8]  0A D8 7D 00 27 10 00 64
 (1787061815.137681)  can0  230   [8]  F0 01 1A 00 61 00 00 00
 (1787061815.137848)  can0  231   [4]  01 00 FF FF
 (1787061815.147503)  can0  200   [7]  02 0B 02 03 02 0B 00
 (1787061815.147643)  can0  201   [8]  0A D8 7D 00 27 10 00 64
 (1787061815.148621)  can0  210   [7]  FF FF 30 A0 90 00 AC
 (1787061815.148831)  can0  4B0   [8]  27 10 27 10 27 10 27 10
 (1787061815.150498)  can0  7DF   [8]  02 01 0B 00 00 00 00 00
 (1787061815.150886)  can0  7E8   [8]  03 41 0B 1E 00 00 00 00
 (1787061815.155151)  can0  430   [7]  98 87 00 00 2A 3F 60
 (1787061815.157221)  can0  200   [7]  02 0B 02 03 02 0B 00
 (1787061815.157431)  can0  201   [8]  0A DF 7D 00 27 10 00 64
 (1787061815.162253)  can0  230   [8]  F0 01 1A 00 61 00 00 00
 (1787061815.162392)  can0  231   [4]  01 00 FF FF
 (1787061815.162608)  can0  210   [7]  FF FF 30 A0 90 00 AD
 (1787061815.162842)  can0  4B0   [8]  27 10 27 10 27 10 27 10
 (1787061815.167214)  can0  200   [7]  02 0B 02 03 02 0B 00
 (1787061815.167452)  can0  201   [8]  0A DF 7D 00 27 10 00 64
 (1787061815.176748)  can0  210   [7]  FF FF 30 A0 90 00 AE
 (1787061815.176848)  can0  4B0   [8]  27 10 27 10 27 10 27 10
 (1787061815.177243)  can0  200   [7]  02 0B 02 03 02 0B 00
 (1787061815.177460)  can0  201   [8]  0A DF 7D 8C 27 10 00 64
 (1787061815.187222)  can0  200   [7]  02 0B 02 03 02 0B 00
 (1787061815.187428)  can0  201   [8]  0A DF 7D 8C 27 10 00 64
 (1787061815.187670)  can0  230   [8]  F0 01 1A 00 61 00 00 00
 (1787061815.187849)  can0  231   [4]  01 00 FF FF
 (1787061815.188072)  can0  420   [7]  83 FB 00 00 00 00 00
 (1787061815.190707)  can0  210   [7]  FF FF 30 A0 90 00 AF
 (1787061815.190860)  can0  4B0   [8]  27 10 27 10 27 10 27 10
 (1787061815.197217)  can0  200   [7]  02 0B 02 03 02 0B 00
 (1787061815.197425)  can0  201   [8]  0A DB 7D 3C 27 10 00 64
 (1787061815.200925)  can0  7DF   [8]  02 01 10 00 00 00 00 00
 (1787061815.201348)  can0  7E8   [8]  04 41 10 00 A4 00 00 00
 (1787061815.204663)  can0  210   [7]  FF FF 30 A0 90 00 B0
 (1787061815.204886)  can0  4B0   [8]  27 10 27 10 27 10 27 10
 (1787061815.205126)  can0  430   [7]  96 87 00 00 2A 3F 60
 (1787061815.207239)  can0  200   [7]  02 0B 02 03 02 0B 00
 (1787061815.207424)  can0  201   [8]  0A DB 7D 3C 27 10 00 64
 (1787061815.212250)  can0  230   [8]  F0 01 1A 00 61 00 00 00
 (1787061815.212390)  can0  231   [4]  01 00 FF FF
 (1787061815.217234)  can0  200   [7]  02 0B 02 03 02 0B 00
 (1787061815.217421)  can0  201   [8]  0A DB 7D 3C 27 10 00 64
 (1787061815.218690)  can0  210   [7]  FF FF 30 A0 90 00 B1
 (1787061815.218884)  can0  4B0   [8]  27 10 27 10 27 10 27 10
 (1787061815.227223)  can0  200   [7]  02 0B 02 03 02 0B 00
 (1787061815.227426)  can0  201   [8]  0A DB 7C B0 27 10 00 64
 (1787061815.232678)  can0  210   [7]  FF FF 30 A0 90 00 B2
 (1787061815.232919)  can0  4B0   [8]  27 10 27 10 27 10 27 10
 (1787061815.237222)  can0  200   [7]  02 0B 02 03 02 0B 00
 (1787061815.237423)  can0  201   [8]  0A DB 7C B0 27 10 00 64
 (1787061815.237659)  can0  230   [8]  F0 01 1A 00 61 00 00 00
 (1787061815.237828)  can0  231   [4]  01 00 FF FF
 (1787061815.246692)  can0  210   [7]  FF FF 30 A0 90 00 B3
 (1787061815.246892)  can0  4B0   [8]  27 10 27 10 27 10 27 10
 (1787061815.247215)  can0  200   [7]  02 0C 02 03 02 0C 00
 (1787061815.247447)  can0  201   [8]  0A D7 7C B0 27 10 00 64
 (1787061815.251039)  can0  7DF   [8]  02 01 0B 00 00 00 00 00
 (1787061815.251401)  can0  7E8   [8]  03 41 0B 1E 00 00 00 00
 (1787061815.255157)  can0  430   [7]  99 87 00 00 2A 3F 60
 (1787061815.257200)  can0  200   [7]  02 0C 02 03 02 0C 00
 (1787061815.257417)  can0  201   [8]  0A D7 7C B0 27 10 00 64
 (1787061815.260700)  can0  210   [7]  FF FF 30 A0 90 00 B4
 (1787061815.260915)  can0  4B0   [8]  27 10 27 10 27 10 27 10
 (1787061815.262209)  can0  230   [8]  F0 01 1A 00 61 00 00 00
 (1787061815.262377)  can0  231   [4]  01 00 FF FF
 (1787061815.267212)  can0  200   [7]  02 0C 02 03 02 0C 00
 (1787061815.267425)  can0  201   [8]  0A D7 7C B0 27 10 00 64
 (1787061815.274709)  can0  210   [7]  FF FF 30 A0 90 00 B5
 (1787061815.274911)  can0  4B0   [8]  27 10 27 10 27 10 27 10
 (1787061815.277208)  can0  200   [7]  02 0C 02 04 02 0C 00
 (1787061815.277419)  can0  201   [8]  0A D7 7C B0 27 10 00 64
 (1787061815.287262)  can0  200   [7]  02 0C 02 04 02 0C 00
 (1787061815.287422)  can0  201   [8]  0A DB 7C B0 27 10 00 64
 (1787061815.287667)  can0  230   [8]  F0 01 1A 00 61 00 00 00
 (1787061815.287836)  can0  231   [4]  01 00 FF FF
 (1787061815.288071)  can0  420   [7]  83 FB 00 00 00 00 00
 (1787061815.288701)  can0  210   [7]  FF FF 30 A0 90 00 B6
 (1787061815.288918)  can0  4B0   [8]  27 10 27 10 27 10 27 10
 (1787061815.297220)  can0  200   [7]  02 0C 02 03 02 0C 00
 (1787061815.297418)  can0  201   [8]  0A DB 7D 50 27 10 00 64
 (1787061815.301077)  can0  7DF   [8]  02 01 10 00 00 00 00 00
 (1787061815.301460)  can0  7E8   [8]  04 41 10 00 9F 00 00 00
 (1787061815.302700)  can0  210   [7]  FF FF 30 A0 90 00 B7
 (1787061815.302931)  can0  4B0   [8]  27 10 27 10 27 10 27 10
 (1787061815.305146)  can0  430   [7]  96 86 00 00 2A 3F 60
 (1787061815.307187)  can0  200   [7]  02 0C 02 03 02 0C 00
 (1787061815.307415)  can0  201   [8]  0A DB 7D 50 27 10 00 64
 (1787061815.312248)  can0  230   [8]  F0 01 1A 00 61 00 00 00
 (1787061815.312382)  can0  231   [4]  01 00 FF FF
 (1787061815.316742)  can0  210   [7]  FF FF 30 A0 90 00 B8
 (1787061815.316947)  can0  4B0   [8]  27 10 27 10 27 10 27 10
 (1787061815.317209)  can0  200   [7]  02 0C 02 03 02 0C 00
 (1787061815.317439)  can0  201   [8]  0A DB 7D 50 27 10 00 64
 (1787061815.327226)  can0  200   [7]  02 0C 02 03 02 0C 00
 (1787061815.327415)  can0  201   [8]  0A E0 7D B4 27 10 00 64
 (1787061815.330741)  can0  210   [7]  FF FF 30 A0 90 00 B9
 (1787061815.330945)  can0  4B0   [8]  27 10 27 10 27 10 27 10
 (1787061815.337219)  can0  200   [7]  02 0C 02 03 02 0C 00
 (1787061815.337426)  can0  201   [8]  0A E0 7D B4 27 10 00 64
 (1787061815.337658)  can0  230   [8]  F0 01 1A 00 61 00 00 00
 (1787061815.337830)  can0  231   [4]  01 00 FF FF
 (1787061815.344746)  can0  210   [7]  FF FF 30 A0 90 00 BA
 (1787061815.344942)  can0  4B0   [8]  27 10 27 10 27 10 27 10
 (1787061815.347204)  can0  200   [7]  02 0B 02 03 02 0B 00
 (1787061815.347409)  can0  201   [8]  0A E0 7D 64 27 10 00 64
 (1787061815.350389)  can0  7DF   [8]  02 01 0B 00 00 00 00 00
 (1787061815.350763)  can0  7E8   [8]  03 41 0B 1E 00 00 00 00
 (1787061815.355158)  can0  430   [7]  96 86 00 00 2A 3F 60
 (1787061815.357201)  can0  200   [7]  02 0B 02 03 02 0B 00
 (1787061815.357408)  can0  201   [8]  0A E0 7D 64 27 10 00 64
 (1787061815.358745)  can0  210   [7]  FF FF 30 A0 90 00 BB
 (1787061815.358954)  can0  4B0   [8]  27 10 27 10 27 10 27 10
 (1787061815.362203)  can0  230   [8]  F0 01 1A 00 61 00 00 00
 (1787061815.362366)  can0  231   [4]  01 00 FF FF
 (1787061815.367218)  can0  200   [7]  02 0B 02 03 02 0B 00
 (1787061815.367418)  can0  201   [8]  0A DE 7D 64 27 10 00 64
 (1787061815.372765)  can0  210   [7]  FF FF 30 A0 90 00 BC
 (1787061815.372967)  can0  4B0   [8]  27 10 27 10 27 10 27 10
 (1787061815.377283)  can0  200   [7]  02 0C 02 03 02 0C 00
 (1787061815.377492)  can0  201   [8]  0A DE 7C D8 27 10 00 64
 (1787061815.386770)  can0  210   [7]  FF FF 30 A0 90 00 BD
 (1787061815.386976)  can0  4B0   [8]  27 10 27 10 27 10 27 10
 (1787061815.387208)  can0  200   [7]  02 0C 02 03 02 0C 00
 (1787061815.387437)  can0  201   [8]  0A DE 7C D8 27 10 00 64
 (1787061815.387677)  can0  230   [8]  F0 01 1A 00 61 00 00 00
 (1787061815.387860)  can0  231   [4]  01 00 FF FF
 (1787061815.388079)  can0  420   [7]  83 FB 00 00 00 00 00
 (1787061815.397341)  can0  200   [7]  02 0C 02 03 02 0C 00
 (1787061815.397475)  can0  201   [8]  0A DE 7C D8 27 10 00 64
 (1787061815.400788)  can0  210   [7]  FF FF 30 A0 90 00 BE
 (1787061815.400995)  can0  4B0   [8]  27 10 27 10 27 10 27 10
 (1787061815.401856)  can0  7DF   [8]  02 01 10 00 00 00 00 00
 (1787061815.402317)  can0  7E8   [8]  04 41 10 00 9F 00 00 00
 (1787061815.405159)  can0  430   [7]  96 88 00 00 2A 3F 60
 (1787061815.407203)  can0  200   [7]  02 0C 02 03 02 0C 00
 (1787061815.407407)  can0  201   [8]  0A DE 7C D8 27 10 00 64
 (1787061815.412276)  can0  230   [8]  F0 01 1A 00 61 00 00 00
 (1787061815.412377)  can0  231   [4]  01 00 FF FF
 (1787061815.414789)  can0  210   [7]  FF FF 30 A0 90 00 BF
 (1787061815.414990)  can0  4B0   [8]  27 10 27 10 27 10 27 10
 (1787061815.417180)  can0  200   [7]  02 0C 02 03 02 0C 00
 (1787061815.417410)  can0  201   [8]  0A D8 7C D8 27 10 00 64
 (1787061815.427274)  can0  200   [7]  02 0C 02 04 02 0C 00
 (1787061815.427411)  can0  201   [8]  0A D8 7C 88 27 10 00 64
 (1787061815.428804)  can0  210   [7]  FF FF 30 A0 90 00 C0
 (1787061815.429019)  can0  4B0   [8]  27 10 27 10 27 10 27 10
 (1787061815.437210)  can0  200   [7]  02 0C 02 04 02 0C 00
 (1787061815.437408)  can0  201   [8]  0A D8 7C 88 27 10 00 64
 (1787061815.437642)  can0  230   [8]  F0 01 1A 00 61 00 00 00
 (1787061815.437813)  can0  231   [4]  01 00 FF FF
 (1787061815.442807)  can0  210   [7]  FF FF 30 A0 90 00 C1
 (1787061815.443013)  can0  4B0   [8]  27 10 27 10 27 10 27 10
 (1787061815.447217)  can0  200   [7]  02 0C 02 03 02 0C 00
 (1787061815.447409)  can0  201   [8]  0A D8 7C 88 27 10 00 64
 (1787061815.451428)  can0  7DF   [8]  02 01 0B 00 00 00 00 00
 (1787061815.451811)  can0  7E8   [8]  03 41 0B 1E 00 00 00 00
 (1787061815.455160)  can0  430   [7]  96 87 00 00 2A 3F 60
 (1787061815.456808)  can0  210   [7]  FF FF 30 A0 90 00 C2
 (1787061815.457012)  can0  4B0   [8]  27 10 27 10 27 10 27 10
 (1787061815.457235)  can0  200   [7]  02 0C 02 03 02 0C 00
 (1787061815.457470)  can0  201   [8]  0A D3 7C 88 27 10 00 64
 (1787061815.462197)  can0  230   [8]  F0 01 1A 00 61 00 00 00
 (1787061815.462353)  can0  231   [4]  01 00 FF FF
 (1787061815.467208)  can0  200   [7]  02 0C 02 03 02 0C 00
 (1787061815.467404)  can0  201   [8]  0A D3 7C 88 27 10 00 64
 (1787061815.470837)  can0  210   [7]  FF FF 30 A0 90 00 C3
 (1787061815.471018)  can0  4B0   [8]  27 10 27 10 27 10 27 10
 (1787061815.477195)  can0  200   [7]  02 0C 02 04 02 0C 00
 (1787061815.477395)  can0  201   [8]  0A D3 7C 9C 27 10 00 64
 (1787061815.484850)  can0  210   [7]  FF FF 30 A0 90 00 C4
 (1787061815.485047)  can0  4B0   [8]  27 10 27 10 27 10 27 10
 (1787061815.487203)  can0  200   [7]  02 0C 02 04 02 0C 00
 (1787061815.487412)  can0  201   [8]  0A D3 7C 9C 27 10 00 64
 (1787061815.487645)  can0  230   [8]  F0 01 1A 00 61 00 00 00
 (1787061815.487817)  can0  231   [4]  01 00 FF FF
 (1787061815.488050)  can0  420   [7]  83 FB 00 00 00 00 00
 (1787061815.497211)  can0  200   [7]  02 0C 02 04 02 0C 00
 (1787061815.497405)  can0  201   [8]  0A D8 7D 00 27 10 00 64
 (1787061815.498851)  can0  210   [7]  FF FF 30 A0 90 00 C5
 (1787061815.499043)  can0  4B0   [8]  27 10 27 10 27 10 27 10
 (1787061815.501007)  can0  7DF   [8]  02 01 10 00 00 00 00 00
 (1787061815.501403)  can0  7E8   [8]  04 41 10 00 A1 00 00 00
 (1787061815.505176)  can0  430   [7]  98 87 00 00 2A 3F 60
 (1787061815.507190)  can0  200   [7]  02 0C 02 04 02 0C 00
 (1787061815.507407)  can0  201   [8]  0A D8 7D 00 27 10 00 64
 (1787061815.512229)  can0  230   [8]  F0 01 1A 00 61 00 00 00
 (1787061815.512377)  can0  231   [4]  01 00 FF FF
 (1787061815.512843)  can0  210   [7]  FF FF 30 A0 90 00 C6
 (1787061815.513048)  can0  4B0   [8]  27 10 27 10 27 10 27 10
 (1787061815.517204)  can0  200   [7]  02 0C 02 04 02 0C 00
 (1787061815.517406)  can0  201   [8]  0A D8 7D 00 27 10 00 64
 (1787061815.526884)  can0  210   [7]  FF FF 30 A0 90 00 C7
 (1787061815.527061)  can0  4B0   [8]  27 10 27 10 27 10 27 10
 (1787061815.527291)  can0  200   [7]  02 0C 02 04 02 0C 00
 (1787061815.527525)  can0  201   [8]  0A D8 7D 64 27 10 00 64
 (1787061815.537193)  can0  200   [7]  02 0C 02 04 02 0C 00
 (1787061815.537396)  can0  201   [8]  0A D8 7D 64 27 10 00 64
 (1787061815.537637)  can0  230   [8]  F0 01 1A 00 61 00 00 00
 (1787061815.537813)  can0  231   [4]  01 00 FF FF
 (1787061815.540903)  can0  210   [7]  FF FF 30 A0 90 00 C8
 (1787061815.541071)  can0  4B0   [8]  27 10 27 10 27 10 27 10
 (1787061815.547205)  can0  200   [7]  02 0C 02 04 02 0C 00
 (1787061815.547400)  can0  201   [8]  0A D7 7C EC 27 10 00 64
 (1787061815.550390)  can0  7DF   [8]  02 01 0B 00 00 00 00 00
 (1787061815.550779)  can0  7E8   [8]  03 41 0B 1E 00 00 00 00
 (1787061815.554875)  can0  210   [7]  FF FF 30 A0 90 00 C9
 (1787061815.555079)  can0  4B0   [8]  27 10 27 10 27 10 27 10
 (1787061815.555299)  can0  430   [7]  96 86 00 00 2A 3F 60
 (1787061815.557184)  can0  200   [7]  02 0C 02 04 02 0C 00
 (1787061815.557394)  can0  201   [8]  0A D7 7C EC 27 10 00 64
 (1787061815.562197)  can0  230   [8]  F0 01 1A 00 61 00 00 00
 (1787061815.562348)  can0  231   [4]  01 00 FF FF
 (1787061815.567389)  can0  200   [7]  02 0C 02 04 02 0C 00
 (1787061815.567516)  can0  201   [8]  0A D7 7C EC 27 10 00 64
 (1787061815.568945)  can0  210   [7]  FF FF 30 A0 90 00 CA
 (1787061815.569123)  can0  4B0   [8]  27 10 27 10 27 10 27 10
 (1787061815.577190)  can0  200   [7]  02 0C 02 04 02 0C 00
 (1787061815.577395)  can0  201   [8]  0A D7 7C EC 27 10 00 64
 (1787061815.582893)  can0  210   [7]  FF FF 30 A0 90 00 CB
 (1787061815.583087)  can0  4B0   [8]  27 10 27 10 27 10 27 10
 (1787061815.587201)  can0  200   [7]  02 0C 02 04 02 0C 00
 (1787061815.587392)  can0  201   [8]  0A D3 7C EC 27 10 00 64
 (1787061815.587634)  can0  230   [8]  F0 01 1A 00 61 00 00 00
 (1787061815.587805)  can0  231   [4]  01 00 FF FF
 (1787061815.588037)  can0  420   [7]  83 FB 00 00 00 00 00
 (1787061815.596936)  can0  210   [7]  FF FF 30 A0 90 00 CC
 (1787061815.597098)  can0  4B0   [8]  27 10 27 10 27 10 27 10
 (1787061815.597328)  can0  200   [7]  02 0C 02 04 02 0C 00
 (1787061815.597559)  can0  201   [8]  0A D3 7C B0 27 10 00 64
 (1787061815.600936)  can0  7DF   [8]  02 01 10 00 00 00 00 00
 (1787061815.601598)  can0  7E8   [8]  04 41 10 00 A1 00 00 00
 (1787061815.605154)  can0  430   [7]  96 86 00 00 2A 3F 60
 (1787061815.607183)  can0  200   [7]  02 0C 02 04 02 0C 00
 (1787061815.607390)  can0  201   [8]  0A D3 7C B0 27 10 00 64
 (1787061815.610900)  can0  210   [7]  FF FF 30 A0 90 00 CD
 (1787061815.611107)  can0  4B0   [8]  27 10 27 10 27 10 27 10
 (1787061815.612216)  can0  230   [8]  F0 01 1A 00 61 00 00 00
 (1787061815.612365)  can0  231   [4]  01 00 FF FF
 (1787061815.617175)  can0  200   [7]  02 0C 02 04 02 0C 00
 (1787061815.617398)  can0  201   [8]  0A D3 7C B0 27 10 00 64
 (1787061815.624958)  can0  210   [7]  FF FF 30 A0 90 00 CE
 (1787061815.625118)  can0  4B0   [8]  27 10 27 10 27 10 27 10
 (1787061815.627219)  can0  200   [7]  02 0C 02 04 02 0C 00
 (1787061815.627427)  can0  201   [8]  0A D5 7C B0 27 10 00 64
 (1787061815.637298)  can0  200   [7]  02 0C 02 04 02 0C 00
 (1787061815.637447)  can0  201   [8]  0A D5 7C B0 27 10 00 64
 (1787061815.637643)  can0  230   [8]  F0 01 1A 00 61 00 00 00
 (1787061815.637802)  can0  231   [4]  01 00 FF FF
 (1787061815.638939)  can0  210   [7]  FF FF 30 A0 90 00 CF
 (1787061815.639134)  can0  4B0   [8]  27 10 27 10 27 10 27 10
 (1787061815.647184)  can0  200   [7]  02 0C 02 04 02 0C 00
 (1787061815.647395)  can0  201   [8]  0A D5 7D 28 27 10 00 64
 (1787061815.651365)  can0  7DF   [8]  02 01 0B 00 00 00 00 00
 (1787061815.651745)  can0  7E8   [8]  03 41 0B 1E 00 00 00 00
 (1787061815.652967)  can0  210   [7]  FF FF 30 A0 90 00 D0
 (1787061815.653138)  can0  4B0   [8]  27 10 27 10 27 10 27 10
 (1787061815.655148)  can0  430   [7]  96 86 00 00 2A 3F 60
 (1787061815.657157)  can0  200   [7]  02 0C 02 04 02 0C 00
 (1787061815.657385)  can0  201   [8]  0A D5 7D 28 27 10 00 64
 (1787061815.662217)  can0  230   [8]  F0 01 1A 00 61 00 00 00
 (1787061815.662344)  can0  231   [4]  01 00 FF FF
 (1787061815.666955)  can0  210   [7]  FF FF 30 A0 90 00 D1
 (1787061815.667146)  can0  4B0   [8]  27 10 27 10 27 10 27 10
 (1787061815.667374)  can0  200   [7]  02 0C 02 04 02 0C 00
 (1787061815.667609)  can0  201   [8]  0A D5 7D 28 27 10 00 64
 (1787061815.677190)  can0  200   [7]  02 0C 02 03 02 0C 00
 (1787061815.677411)  can0  201   [8]  0A DA 7D 8C 27 10 00 64
 (1787061815.680948)  can0  210   [7]  FF FF 30 A0 90 00 D2
 (1787061815.681148)  can0  4B0   [8]  27 10 27 10 27 10 27 10
 (1787061815.687177)  can0  200   [7]  02 0C 02 03 02 0C 00
 (1787061815.687387)  can0  201   [8]  0A DA 7D 8C 27 10 00 64
 (1787061815.687623)  can0  230   [8]  F0 01 1A 00 61 00 00 00
 (1787061815.687796)  can0  231   [4]  01 00 FF FF
 (1787061815.688023)  can0  420   [7]  83 FB 00 00 00 00 00
 (1787061815.694962)  can0  210   [7]  FF FF 30 A0 90 00 D3
 (1787061815.695161)  can0  4B0   [8]  27 10 27 10 27 10 27 10
 (1787061815.697181)  can0  200   [7]  02 0C 02 03 02 0C 00
 (1787061815.697384)  can0  201   [8]  0A DA 7D 64 27 10 00 64
 (1787061815.700838)  can0  7DF   [8]  02 01 10 00 00 00 00 00
 (1787061815.701299)  can0  7E8   [8]  04 41 10 00 A1 00 00 00
 (1787061815.705167)  can0  430   [7]  96 87 00 00 2A 3F 60
 (1787061815.707192)  can0  200   [7]  02 0C 02 03 02 0C 00
 (1787061815.707391)  can0  201   [8]  0A DA 7D 64 27 10 00 64
 (1787061815.708943)  can0  210   [7]  FF FF 30 A0 90 00 D4
 (1787061815.709158)  can0  4B0   [8]  27 10 27 10 27 10 27 10
 (1787061815.712185)  can0  230   [8]  F0 01 1A 00 61 00 00 00
 (1787061815.712347)  can0  231   [4]  01 00 FF FF
 (1787061815.717192)  can0  200   [7]  02 0C 02 03 02 0C 00
 (1787061815.717389)  can0  201   [8]  0A DA 7D 64 27 10 00 64
 (1787061815.722963)  can0  210   [7]  FF FF 30 A0 90 00 D5
 (1787061815.723171)  can0  4B0   [8]  27 10 27 10 27 10 27 10
 (1787061815.727175)  can0  200   [7]  02 0C 02 03 02 0C 00
 (1787061815.727382)  can0  201   [8]  0A DA 7D 00 27 10 00 64
 (1787061815.736980)  can0  210   [7]  FF FF 30 A0 90 00 D6
 (1787061815.737179)  can0  200   [7]  02 0C 02 03 02 0C 00
 (1787061815.737410)  can0  201   [8]  0A DA 7D 00 27 10 00 64
 (1787061815.737661)  can0  230   [8]  F0 01 1A 00 61 00 00 00
 (1787061815.737825)  can0  231   [4]  01 00 FF FF
 (1787061815.738058)  can0  4B0   [8]  27 10 27 10 27 10 27 10
 (1787061815.747282)  can0  200   [7]  02 0C 02 03 02 0C 00
 (1787061815.747372)  can0  201   [8]  0A DA 7D 00 27 10 00 64
 (1787061815.750993)  can0  210   [7]  FF FF 30 A0 90 00 D7
 (1787061815.751199)  can0  4B0   [8]  27 10 27 10 27 10 27 10
 (1787061815.751447)  can0  7DF   [8]  02 01 0B 00 00 00 00 00
 (1787061815.751871)  can0  7E8   [8]  03 41 0B 1E 00 00 00 00
 (1787061815.755164)  can0  430   [7]  98 87 00 00 2A 3F 60
 (1787061815.757166)  can0  200   [7]  02 0C 02 03 02 0C 00
 (1787061815.757376)  can0  201   [8]  0A D6 7D 00 27 10 00 64
 (1787061815.762213)  can0  230   [8]  F0 01 1A 00 61 00 00 00
 (1787061815.762328)  can0  231   [4]  01 00 FF FF
 (1787061815.764984)  can0  210   [7]  FF FF 30 A0 90 00 D8
 (1787061815.765200)  can0  4B0   [8]  27 10 27 10 27 10 27 10
 (1787061815.767151)  can0  200   [7]  02 0C 02 03 02 0C 00
 (1787061815.767379)  can0  201   [8]  0A D6 7D 00 27 10 00 64
 (1787061815.777166)  can0  200   [7]  02 0C 02 04 02 0C 00
 (1787061815.777382)  can0  201   [8]  0A D6 7C B0 27 10 00 64
 (1787061815.778991)  can0  210   [7]  FF FF 30 A0 90 00 D9
 (1787061815.779208)  can0  4B0   [8]  27 10 27 10 27 10 27 10
 (1787061815.787268)  can0  200   [7]  02 0C 02 04 02 0C 00
 (1787061815.787421)  can0  201   [8]  0A D6 7C B0 27 10 00 64
 (1787061815.787632)  can0  230   [8]  F0 01 1A 00 61 00 00 00
 (1787061815.787790)  can0  231   [4]  01 00 FF FF
 (1787061815.788024)  can0  420   [7]  83 FB 00 00 00 00 00
 (1787061815.793005)  can0  210   [7]  FF FF 30 A0 90 00 DA
 (1787061815.793217)  can0  4B0   [8]  27 10 27 10 27 10 27 10
 (1787061815.797175)  can0  200   [7]  02 0C 02 04 02 0C 00
 (1787061815.797370)  can0  201   [8]  0A D6 7C B0 27 10 00 64
 (1787061815.800985)  can0  7DF   [8]  02 01 10 00 00 00 00 00
 (1787061815.801317)  can0  7DF   [8]  02 01 42 00 00 00 00 00
 (1787061815.801575)  can0  7E8   [8]  04 41 10 00 A4 00 00 00
 (1787061815.805169)  can0  430   [7]  98 87 00 00 2A 3F 60
 (1787061815.807008)  can0  210   [7]  FF FF 30 A0 90 00 DB
 (1787061815.807215)  can0  200   [7]  02 0C 02 04 02 0C 00
 (1787061815.807448)  can0  201   [8]  0A D7 7C B0 27 10 00 64
 (1787061815.807680)  can0  4B0   [8]  27 10 27 10 27 10 27 10
 (1787061815.812219)  can0  230   [8]  F0 01 1A 00 61 00 00 00
 (1787061815.812338)  can0  231   [4]  01 00 FF FF
 (1787061815.817203)  can0  200   [7]  02 0C 02 04 02 0C 00
 (1787061815.817385)  can0  201   [8]  0A D7 7C B0 27 10 00 64
 (1787061815.821018)  can0  210   [7]  FF FF 30 A0 90 00 DC
 (1787061815.821225)  can0  4B0   [8]  27 10 27 10 27 10 27 10
 (1787061815.827177)  can0  200   [7]  02 0C 02 04 02 0C 00
 (1787061815.827373)  can0  201   [8]  0A D7 7D 14 27 10 00 64
 (1787061815.835071)  can0  210   [7]  FF FF 30 A0 90 00 DD
 (1787061815.835246)  can0  4B0   [8]  27 10 27 10 27 10 27 10
 (1787061815.837167)  can0  200   [7]  02 0C 02 04 02 0C 00
 (1787061815.837374)  can0  201   [8]  0A D7 7D 14 27 10 00 64
 (1787061815.837607)  can0  230   [8]  F0 01 1A 00 61 00 00 00
 (1787061815.837774)  can0  231   [4]  01 00 FF FF
 (1787061815.847187)  can0  200   [7]  02 0C 02 03 02 0C 00
 (1787061815.847373)  can0  201   [8]  0A DD 7D 8C 27 10 00 64
 (1787061815.849032)  can0  210   [7]  FF FF 30 A0 90 00 DE
 (1787061815.849249)  can0  4B0   [8]  27 10 27 10 27 10 27 10
 (1787061815.851136)  can0  7DF   [8]  02 01 0B 00 00 00 00 00
 (1787061815.851517)  can0  7E8   [8]  03 41 0B 1E 00 00 00 00
 (1787061815.855172)  can0  430   [7]  99 86 00 00 2A 3F 60
 (1787061815.857163)  can0  200   [7]  02 0C 02 03 02 0C 00
 (1787061815.857370)  can0  201   [8]  0A DD 7D 8C 27 10 00 64
 (1787061815.862179)  can0  230   [8]  F0 01 1A 00 61 00 00 00
 (1787061815.862326)  can0  231   [4]  01 00 FF FF
 (1787061815.863022)  can0  210   [7]  FF FF 30 A0 90 00 DF
 (1787061815.863254)  can0  4B0   [8]  27 10 27 10 27 10 27 10
 (1787061815.867232)  can0  200   [7]  02 0C 02 03 02 0C 00
 (1787061815.867369)  can0  201   [8]  0A DD 7D 8C 27 10 00 64
 (1787061815.877062)  can0  210   [7]  FF FF 30 A0 90 00 E0
 (1787061815.877261)  can0  200   [7]  02 0C 02 03 02 0C 00
 (1787061815.877489)  can0  201   [8]  0A DD 7D 78 27 10 00 64
 (1787061815.877723)  can0  4B0   [8]  27 10 27 10 27 10 27 10
 (1787061815.887174)  can0  200   [7]  02 0C 02 03 02 0C 00
 (1787061815.887375)  can0  201   [8]  0A DD 7D 78 27 10 00 64
 (1787061815.887618)  can0  230   [8]  F0 01 1A 00 61 00 00 00
 (1787061815.887780)  can0  231   [4]  01 00 FF FF
 (1787061815.888010)  can0  420   [7]  83 FB 00 00 00 00 00
 (1787061815.891067)  can0  210   [7]  FF FF 30 A0 90 00 E1
 (1787061815.891267)  can0  4B0   [8]  27 10 27 10 27 10 27 10
 (1787061815.897182)  can0  200   [7]  02 0C 02 03 02 0C 00
 (1787061815.897378)  can0  201   [8]  0A DD 7D 00 27 10 00 64
 (1787061815.901162)  can0  7DF   [8]  02 01 10 00 00 00 00 00
 (1787061815.901558)  can0  7E8   [8]  04 41 10 00 9D 00 00 00
 (1787061815.905085)  can0  210   [7]  FF FF 30 A0 90 00 E2
 (1787061815.905266)  can0  430   [7]  96 87 00 00 2A 3F 60
 (1787061815.905507)  can0  4B0   [8]  27 10 27 10 27 10 27 10
 (1787061815.907162)  can0  200   [7]  02 0C 02 03 02 0C 00
 (1787061815.907365)  can0  201   [8]  0A DD 7D 00 27 10 00 64
 (1787061815.912229)  can0  230   [8]  F0 01 1A 00 61 00 00 00
 (1787061815.912333)  can0  231   [4]  01 00 FF FF
 (1787061815.917156)  can0  200   [7]  02 0C 02 03 02 0C 00
 (1787061815.917361)  can0  201   [8]  0A DD 7D 00 27 10 00 64
 (1787061815.919062)  can0  210   [7]  FF FF 30 A0 90 00 E3
 (1787061815.919282)  can0  4B0   [8]  27 10 27 10 27 10 27 10
 (1787061815.927159)  can0  200   [7]  02 0B 02 03 02 0B 00
 (1787061815.927370)  can0  201   [8]  0A DD 7D 00 27 10 00 64
 (1787061815.933099)  can0  210   [7]  FF FF 30 A0 90 00 E4
 (1787061815.933305)  can0  4B0   [8]  27 10 27 10 27 10 27 10
 (1787061815.937168)  can0  200   [7]  02 0B 02 03 02 0B 00
 (1787061815.937371)  can0  201   [8]  0A D8 7D 00 27 10 00 64
 (1787061815.937617)  can0  230   [8]  F0 01 1A 00 61 00 00 00
 (1787061815.937775)  can0  231   [4]  01 00 FF FF
 (1787061815.947108)  can0  210   [7]  FF FF 30 A0 90 00 E5
 (1787061815.947296)  can0  200   [7]  02 0C 02 03 02 0C 00
 (1787061815.947525)  can0  201   [8]  0A D8 7C 9C 27 10 00 64
 (1787061815.947760)  can0  4B0   [8]  27 10 27 10 27 10 27 10
 (1787061815.950571)  can0  7DF   [8]  02 01 0B 00 00 00 00 00
 (1787061815.950941)  can0  7E8   [8]  03 41 0B 1E 00 00 00 00
 (1787061815.955165)  can0  430   [7]  99 86 00 00 2A 3F 60
 (1787061815.957129)  can0  200   [7]  02 0C 02 03 02 0C 00
 (1787061815.957352)  can0  201   [8]  0A D8 7C 9C 27 10 00 64
 (1787061815.961085)  can0  210   [7]  FF FF 30 A0 90 00 E6
 (1787061815.961307)  can0  4B0   [8]  27 10 27 10 27 10 27 10
 (1787061815.962189)  can0  230   [8]  F0 01 1A 00 61 00 00 00
 (1787061815.962340)  can0  231   [4]  01 00 FF FF
 (1787061815.967185)  can0  200   [7]  02 0C 02 03 02 0C 00
 (1787061815.967364)  can0  201   [8]  0A D8 7C 9C 27 10 00 64
 (1787061815.975123)  can0  210   [7]  FF FF 30 A0 90 00 E7
 (1787061815.975319)  can0  4B0   [8]  27 10 27 10 27 10 27 10
 (1787061815.977145)  can0  200   [7]  02 0C 02 03 02 0C 00
 (1787061815.977387)  can0  201   [8]  0A DC 7C EC 27 10 00 64
 (1787061815.987154)  can0  200   [7]  02 0C 02 03 02 0C 00
 (1787061815.987354)  can0  201   [8]  0A DC 7C EC 27 10 00 64
 (1787061815.987593)  can0  230   [8]  F0 01 1A 00 61 00 00 00
 (1787061815.987764)  can0  231   [4]  01 00 FF FF
 (1787061815.987991)  can0  420   [7]  83 FB 00 00 00 00 00
 (1787061815.989101)  can0  210   [7]  FF FF 30 A0 90 00 E8
 (1787061815.989338)  can0  4B0   [8]  27 10 27 10 27 10 27 10
 (1787061815.997157)  can0  200   [7]  02 0C 02 03 02 0C 00
 (1787061815.997375)  can0  201   [8]  0A DC 7D 50 27 10 00 64
 (1787061816.000948)  can0  7DF   [8]  02 01 10 00 00 00 00 00
 (1787061816.001330)  can0  7E8   [8]  04 41 10 00 A1 00 00 00
 (1787061816.003144)  can0  210   [7]  FF FF 30 A0 90 00 E9
 (1787061816.003341)  can0  4B0   [8]  27 10 27 10 27 10 27 10
 (1787061816.005155)  can0  430   [7]  96 87 00 00 2A 3F 60
 (1787061816.007176)  can0  200   [7]  02 0C 02 03 02 0C 00
 (1787061816.007365)  can0  201   [8]  0A DC 7D 50 27 10 00 64
 (1787061816.012179)  can0  230   [8]  F0 01 1A 00 61 00 00 00
 (1787061816.012323)  can0  231   [4]  01 00 FF FF
 (1787061816.017218)  can0  200   [7]  02 0C 02 03 02 0C 00
 (1787061816.017374)  can0  201   [8]  0A E0 7D 50 27 10 00 64
 (1787061816.017579)  can0  210   [7]  FF FF 30 A0 90 00 EA
 (1787061816.017821)  can0  4B0   [8]  27 10 27 10 27 10 27 10
 (1787061816.027157)  can0  200   [7]  02 0C 02 03 02 0C 00
 (1787061816.027360)  can0  201   [8]  0A E0 7D 50 27 10 00 64
 (1787061816.031162)  can0  210   [7]  FF FF 30 A0 90 00 EB
 (1787061816.031363)  can0  4B0   [8]  27 10 27 10 27 10 27 10
 (1787061816.037145)  can0  200   [7]  02 0C 02 03 02 0C 00
 (1787061816.037363)  can0  201   [8]  0A E0 7D 50 27 10 00 64
 (1787061816.037598)  can0  230   [8]  F0 01 1A 00 61 00 00 00
 (1787061816.037765)  can0  231   [4]  01 00 FF FF
 (1787061816.045173)  can0  210   [7]  FF FF 30 A0 90 00 EC
 (1787061816.045365)  can0  4B0   [8]  27 10 27 10 27 10 27 10
 (1787061816.047140)  can0  200   [7]  02 0C 02 03 02 0C 00
 (1787061816.047356)  can0  201   [8]  0A E0 7D 50 27 10 00 64
 (1787061816.050408)  can0  7DF   [8]  02 01 0B 00 00 00 00 00
 (1787061816.050790)  can0  7E8   [8]  03 41 0B 1E 00 00 00 00
 (1787061816.055171)  can0  430   [7]  96 87 00 00 2A 3F 60
 (1787061816.057143)  can0  200   [7]  02 0C 02 03 02 0C 00
 (1787061816.057361)  can0  201   [8]  0A E0 7D 50 27 10 00 64
 (1787061816.059164)  can0  210   [7]  FF FF 30 A0 90 00 ED
 (1787061816.059366)  can0  4B0   [8]  27 10 27 10 27 10 27 10
 (1787061816.062167)  can0  230   [8]  F0 01 1A 00 61 00 00 00
 (1787061816.062309)  can0  231   [4]  01 00 FF FF
 (1787061816.067153)  can0  200   [7]  02 0C 02 03 02 0C 00
 (1787061816.067363)  can0  201   [8]  0A D7 7D 50 27 10 00 64
 (1787061816.073253)  can0  210   [7]  FF FF 30 A0 90 00 EE
 (1787061816.073388)  can0  4B0   [8]  27 10 27 10 27 10 27 10
 (1787061816.077159)  can0  200   [7]  02 0C 02 04 02 0C 00
 (1787061816.077356)  can0  201   [8]  0A D7 7C 4C 27 10 00 64
 (1787061816.087154)  can0  200   [7]  02 0C 02 04 02 0C 00
 (1787061816.087366)  can0  201   [8]  0A D7 7C 4C 27 10 00 64
 (1787061816.087575)  can0  210   [7]  FF FF 30 A0 90 00 EF
 (1787061816.087814)  can0  230   [8]  F0 01 1A 00 61 00 00 00
 (1787061816.087985)  can0  231   [4]  01 00 FF FF
 (1787061816.088214)  can0  420   [7]  83 FB 00 00 00 00 00
 (1787061816.088464)  can0  4B0   [8]  27 10 27 10 27 10 27 10
 (1787061816.088698)  can0  620   [8]  0D 40 12 1E 10 00 01 20
 (1787061816.088937)  can0  630   [8]  84 01 9F 00 00 00 4F 4F
 (1787061816.097154)  can0  200   [7]  02 0C 02 04 02 0C 00
 (1787061816.097353)  can0  201   [8]  0A D7 7C 4C 27 10 00 64
 (1787061816.101181)  can0  210   [7]  FF FF 30 A0 90 00 F0
 (1787061816.101399)  can0  4B0   [8]  27 10 27 10 27 10 27 10
 (1787061816.101639)  can0  7DF   [8]  02 01 10 00 00 00 00 00
 (1787061816.102028)  can0  7E8   [8]  04 41 10 00 A1 00 00 00
 (1787061816.105166)  can0  430   [7]  98 87 00 00 2A 3F 60
 (1787061816.107139)  can0  200   [7]  02 0C 02 04 02 0C 00
 (1787061816.107349)  can0  201   [8]  0A D0 7C 4C 27 10 00 64
 (1787061816.112252)  can0  230   [8]  F0 01 1A 00 61 00 00 00
 (1787061816.112403)  can0  231   [4]  01 00 FF FF
 (1787061816.115206)  can0  210   [7]  FF FF 30 A0 90 00 F1
 (1787061816.115413)  can0  4B0   [8]  27 10 27 10 27 10 27 10
 (1787061816.117143)  can0  200   [7]  02 0C 02 04 02 0C 00
 (1787061816.117350)  can0  201   [8]  0A D0 7C 4C 27 10 00 64
 (1787061816.127157)  can0  200   [7]  02 0C 02 04 02 0C 00
 (1787061816.127356)  can0  201   [8]  0A D0 7C 74 27 10 00 64
 (1787061816.129261)  can0  210   [7]  FF FF 30 A0 90 00 F2
 (1787061816.129409)  can0  4B0   [8]  27 10 27 10 27 10 27 10
 (1787061816.137163)  can0  200   [7]  02 0C 02 04 02 0C 00
 (1787061816.137355)  can0  201   [8]  0A D0 7C 74 27 10 00 64
 (1787061816.137608)  can0  230   [8]  F0 01 1A 00 61 00 00 00
 (1787061816.137766)  can0  231   [4]  01 00 FF FF
 (1787061816.143227)  can0  210   [7]  FF FF 30 A0 90 00 F3
 (1787061816.143422)  can0  4B0   [8]  27 10 27 10 27 10 27 10
 (1787061816.147173)  can0  200   [7]  02 0C 02 04 02 0C 00
 (1787061816.147357)  can0  201   [8]  0A D7 7D 00 27 10 00 64
 (1787061816.152992)  can0  7DF   [8]  02 01 0B 00 00 00 00 00
 (1787061816.153368)  can0  7E8   [8]  03 41 0B 1E 00 00 00 00
 (1787061816.155166)  can0  430   [7]  99 86 00 00 2A 3F 60
 (1787061816.157139)  can0  200   [7]  02 0C 02 04 02 0C 00
 (1787061816.157346)  can0  201   [8]  0A D7 7D 00 27 10 00 64
 (1787061816.157573)  can0  210   [7]  FF FF 30 A0 90 00 F4
 (1787061816.157809)  can0  4B0   [8]  27 10 27 10 27 10 27 10
 (1787061816.162182)  can0  230   [8]  F0 01 1A 00 61 00 00 00
 (1787061816.162300)  can0  231   [4]  01 00 FF FF
 (1787061816.167147)  can0  200   [7]  02 0C 02 04 02 0C 00
 (1787061816.167349)  can0  201   [8]  0A D7 7D 00 27 10 00 64
 (1787061816.171270)  can0  210   [7]  FF FF 30 A0 90 00 F5
 (1787061816.171450)  can0  4B0   [8]  27 10 27 10 27 10 27 10
 (1787061816.177216)  can0  200   [7]  02 0C 02 04 02 0C 00
 (1787061816.177435)  can0  201   [8]  0A D7 7D 8C 27 10 00 64
 (1787061816.185240)  can0  210   [7]  FF FF 30 A0 90 00 F6
 (1787061816.185449)  can0  4B0   [8]  27 10 27 10 27 10 27 10
 (1787061816.187164)  can0  200   [7]  02 0C 02 04 02 0C 00
 (1787061816.187351)  can0  201   [8]  0A D7 7D 8C 27 10 00 64
 (1787061816.187586)  can0  230   [8]  F0 01 1A 00 61 00 00 00
 (1787061816.187753)  can0  231   [4]  01 00 FF FF
 (1787061816.187994)  can0  420   [7]  83 FB 00 00 00 00 00
 (1787061816.197147)  can0  200   [7]  02 0C 02 03 02 0C 00
 (1787061816.197343)  can0  201   [8]  0A DD 7D 78 27 10 00 64
 (1787061816.199244)  can0  210   [7]  FF FF 30 A0 90 00 F7
 (1787061816.199457)  can0  4B0   [8]  27 10 27 10 27 10 27 10
 (1787061816.200955)  can0  7DF   [8]  02 01 10 00 00 00 00 00
 (1787061816.201350)  can0  7E8   [8]  04 41 10 00 9D 00 00 00
 (1787061816.205161)  can0  430   [7]  96 87 00 00 2A 3F 60
 (1787061816.207125)  can0  200   [7]  02 0C 02 03 02 0C 00
 (1787061816.207342)  can0  201   [8]  0A DD 7D 78 27 10 00 64
 (1787061816.212164)  can0  230   [8]  F0 01 1A 00 61 00 00 00
 (1787061816.212306)  can0  231   [4]  01 00 FF FF
 (1787061816.213262)  can0  210   [7]  FF FF 30 A0 90 00 F8
 (1787061816.213478)  can0  4B0   [8]  27 10 27 10 27 10 27 10
 (1787061816.217143)  can0  200   [7]  02 0C 02 03 02 0C 00
 (1787061816.217337)  can0  201   [8]  0A DD 7D 78 27 10 00 64
 (1787061816.227157)  can0  200   [7]  02 0C 02 03 02 0C 00
 (1787061816.227341)  can0  201   [8]  0A DD 7D 78 27 10 00 64
 (1787061816.227566)  can0  210   [7]  FF FF 30 A0 90 00 F9
 (1787061816.227798)  can0  4B0   [8]  27 10 27 10 27 10 27 10
 (1787061816.237156)  can0  200   [7]  02 0C 02 03 02 0C 00
 (1787061816.237338)  can0  201   [8]  0A DF 7D 78 27 10 00 64
 (1787061816.237578)  can0  230   [8]  F0 01 1A 00 61 00 00 00
 (1787061816.237749)  can0  231   [4]  01 00 FF FF
 (1787061816.241280)  can0  210   [7]  FF FF 30 A0 90 00 FA
 (1787061816.241504)  can0  4B0   [8]  27 10 27 10 27 10 27 10
 (1787061816.247133)  can0  200   [7]  02 0B 02 03 02 0B 00
 (1787061816.247345)  can0  201   [8]  0A DF 7D 28 27 10 00 64
 (1787061816.250764)  can0  7DF   [8]  02 01 0B 00 00 00 00 00
 (1787061816.251273)  can0  7E8   [8]  03 41 0B 1E 00 00 00 00
 (1787061816.255172)  can0  430   [7]  96 86 00 00 2A 3F 60
 (1787061816.255364)  can0  210   [7]  FF FF 30 A0 90 00 FB
 (1787061816.255590)  can0  4B0   [8]  27 10 27 10 27 10 27 10
 (1787061816.257109)  can0  200   [7]  02 0B 02 03 02 0B 00
 (1787061816.257342)  can0  201   [8]  0A DF 7D 28 27 10 00 64
 (1787061816.262149)  can0  230   [8]  F0 01 1A 00 61 00 00 00
 (1787061816.262291)  can0  231   [4]  01 00 FF FF
 (1787061816.267137)  can0  200   [7]  02 0B 02 03 02 0B 00
 (1787061816.267340)  can0  201   [8]  0A DF 7D 28 27 10 00 64
 (1787061816.269314)  can0  210   [7]  FF FF 30 A0 90 00 FC
 (1787061816.269502)  can0  4B0   [8]  27 10 27 10 27 10 27 10
 (1787061816.277125)  can0  200   [7]  02 0C 02 03 02 0C 00
 (1787061816.277337)  can0  201   [8]  0A DB 7D 28 27 10 00 64
 (1787061816.283341)  can0  210   [7]  FF FF 30 A0 90 00 FD
 (1787061816.283524)  can0  4B0   [8]  27 10 27 10 27 10 27 10
 (1787061816.287162)  can0  200   [7]  02 0C 02 03 02 0C 00
 (1787061816.287344)  can0  201   [8]  0A DB 7D 28 27 10 00 64
 (1787061816.287583)  can0  230   [8]  F0 01 1A 00 61 00 00 00
 (1787061816.287756)  can0  231   [4]  01 00 FF FF
 (1787061816.287985)  can0  420   [7]  83 FB 00 00 00 00 00
 (1787061816.297132)  can0  200   [7]  02 0C 02 04 02 0C 00
 (1787061816.297335)  can0  201   [8]  0A DB 7C B0 27 10 00 64
 (1787061816.297571)  can0  210   [7]  FF FF 30 A0 90 00 FE
 (1787061816.297802)  can0  4B0   [8]  27 10 27 10 27 10 27 10
 (1787061816.301662)  can0  7DF   [8]  02 01 10 00 00 00 00 00
 (1787061816.302036)  can0  7E8   [8]  04 41 10 00 A1 00 00 00
 (1787061816.305162)  can0  430   [7]  99 87 00 00 2A 3F 60
 (1787061816.307145)  can0  200   [7]  02 0C 02 04 02 0C 00
 (1787061816.307337)  can0  201   [8]  0A DB 7C B0 27 10 00 64
 (1787061816.311329)  can0  210   [7]  FF FF 30 A0 90 00 FF
 (1787061816.311524)  can0  4B0   [8]  27 10 27 10 27 10 27 10
 (1787061816.312153)  can0  230   [8]  F0 01 1A 00 61 00 00 00
 (1787061816.312318)  can0  231   [4]  01 00 FF FF
 (1787061816.317119)  can0  200   [7]  02 0C 02 04 02 0C 00
 (1787061816.317327)  can0  201   [8]  0A DB 7C B0 27 10 00 64
 (1787061816.325394)  can0  210   [7]  FF FF 30 A0 90 00 00
 (1787061816.325552)  can0  4B0   [8]  27 10 27 10 27 10 27 10
 (1787061816.327145)  can0  200   [7]  02 0C 02 04 02 0C 00
 (1787061816.327338)  can0  201   [8]  0A D9 7C 88 27 10 00 64
 (1787061816.337118)  can0  200   [7]  02 0C 02 04 02 0C 00
 (1787061816.337324)  can0  201   [8]  0A D9 7C 88 27 10 00 64
 (1787061816.337564)  can0  230   [8]  F0 01 1A 00 61 00 00 00
 (1787061816.337735)  can0  231   [4]  01 00 FF FF
 (1787061816.339336)  can0  210   [7]  FF FF 30 A0 90 00 01
 (1787061816.339540)  can0  4B0   [8]  27 10 27 10 27 10 27 10
 (1787061816.347135)  can0  200   [7]  02 0C 02 04 02 0C 00
 (1787061816.347330)  can0  201   [8]  0A D9 7C D8 27 10 00 64
 (1787061816.350910)  can0  7DF   [8]  02 01 0B 00 00 00 00 00
 (1787061816.351306)  can0  7E8   [8]  03 41 0B 1E 00 00 00 00
 (1787061816.353330)  can0  210   [7]  FF FF 30 A0 90 00 02
 (1787061816.353544)  can0  4B0   [8]  27 10 27 10 27 10 27 10
 (1787061816.355151)  can0  430   [7]  96 87 00 00 2A 3F 60
 (1787061816.357113)  can0  200   [7]  02 0C 02 04 02 0C 00
 (1787061816.357321)  can0  201   [8]  0A D9 7C D8 27 10 00 64
 (1787061816.362132)  can0  230   [8]  F0 01 1A 00 61 00 00 00
 (1787061816.362277)  can0  231   [4]  01 00 FF FF
 (1787061816.367172)  can0  200   [7]  02 0C 02 04 02 0C 00
 (1787061816.367339)  can0  201   [8]  0A DF 7C D8 27 10 00 64
 (1787061816.367597)  can0  210   [7]  FF FF 30 A0 90 00 03
 (1787061816.367801)  can0  4B0   [8]  27 10 27 10 27 10 27 10
 (1787061816.377117)  can0  200   [7]  02 0C 02 03 02 0C 00
 (1787061816.377324)  can0  201   [8]  0A DF 7D 78 27 10 00 64
 (1787061816.381359)  can0  210   [7]  FF FF 30 A0 90 00 04
 (1787061816.381565)  can0  4B0   [8]  27 10 27 10 27 10 27 10
 (1787061816.387137)  can0  200   [7]  02 0C 02 03 02 0C 00
 (1787061816.387333)  can0  201   [8]  0A DF 7D 78 27 10 00 64
 (1787061816.387582)  can0  230   [8]  F0 01 1A 00 61 00 00 00
 (1787061816.387746)  can0  231   [4]  01 00 FF FF
 (1787061816.387977)  can0  420   [7]  83 FB 00 00 00 00 00
 (1787061816.395394)  can0  210   [7]  FF FF 30 A0 90 00 05
 (1787061816.395579)  can0  4B0   [8]  27 10 27 10 27 10 27 10
 (1787061816.397115)  can0  200   [7]  02 0B 02 03 02 0B 00
 (1787061816.397327)  can0  201   [8]  0A DF 7D 78 27 10 00 64
 (1787061816.401009)  can0  7DF   [8]  02 01 10 00 00 00 00 00
 (1787061816.401424)  can0  7E8   [8]  04 41 10 00 A1 00 00 00
 (1787061816.405171)  can0  430   [7]  96 87 00 00 2A 3F 60
 (1787061816.407106)  can0  200   [7]  02 0B 02 03 02 0B 00
 (1787061816.407321)  can0  201   [8]  0A E3 7D 78 27 10 00 64
 (1787061816.409366)  can0  210   [7]  FF FF 30 A0 90 00 06
 (1787061816.409578)  can0  4B0   [8]  27 10 27 10 27 10 27 10
 (1787061816.412135)  can0  230   [8]  F0 01 1A 00 61 00 00 00
 (1787061816.412284)  can0  231   [4]  01 00 FF FF
 (1787061816.417116)  can0  200   [7]  02 0B 02 03 02 0B 00
 (1787061816.417320)  can0  201   [8]  0A E3 7D 78 27 10 00 64
 (1787061816.423431)  can0  210   [7]  FF FF 30 A0 90 00 07
 (1787061816.423588)  can0  4B0   [8]  27 10 27 10 27 10 27 10
 (1787061816.427133)  can0  200   [7]  02 0B 02 03 02 0B 00
 (1787061816.427328)  can0  201   [8]  0A E3 7D 50 27 10 00 64
 (1787061816.437110)  can0  200   [7]  02 0B 02 03 02 0B 00
 (1787061816.437321)  can0  201   [8]  0A E3 7D 50 27 10 00 64
 (1787061816.437544)  can0  210   [7]  FF FF 30 A0 90 00 08
 (1787061816.437796)  can0  230   [8]  F0 01 1A 00 61 00 00 00
 (1787061816.437956)  can0  231   [4]  01 00 FF FF
 (1787061816.438189)  can0  4B0   [8]  27 10 27 10 27 10 27 10
 (1787061816.447125)  can0  200   [7]  02 0B 02 03 02 0B 00
 (1787061816.447317)  can0  201   [8]  0A E2 7D 3C 27 10 00 64
 (1787061816.451417)  can0  210   [7]  FF FF 30 A0 90 00 09
 (1787061816.451612)  can0  4B0   [8]  27 10 27 10 27 10 27 10
 (1787061816.451846)  can0  7DF   [8]  02 01 0B 00 00 00 00 00
 (1787061816.452451)  can0  7E8   [8]  03 41 0B 1E 00 00 00 00
 (1787061816.455193)  can0  430   [7]  96 87 00 00 2A 3F 60
 (1787061816.457187)  can0  200   [7]  02 0B 02 03 02 0B 00
 (1787061816.457401)  can0  201   [8]  0A E2 7D 3C 27 10 00 64
 (1787061816.462111)  can0  230   [8]  F0 01 1A 00 61 00 00 00
 (1787061816.462267)  can0  231   [4]  01 00 FF FF
 (1787061816.465426)  can0  210   [7]  FF FF 30 A0 90 00 0A
 (1787061816.465620)  can0  4B0   [8]  27 10 27 10 27 10 27 10
 (1787061816.467271)  can0  200   [7]  02 0B 02 03 02 0B 00
 (1787061816.467448)  can0  201   [8]  0A E2 7D 3C 27 10 00 64
 (1787061816.477112)  can0  200   [7]  02 0C 02 03 02 0C 00
 (1787061816.477315)  can0  201   [8]  0A E2 7C EC 27 10 00 64
 (1787061816.479440)  can0  210   [7]  FF FF 30 A0 90 00 0B
 (1787061816.479638)  can0  4B0   [8]  27 10 27 10 27 10 27 10
 (1787061816.487135)  can0  200   [7]  02 0C 02 03 02 0C 00
 (1787061816.487324)  can0  201   [8]  0A E2 7C EC 27 10 00 64
 (1787061816.487565)  can0  230   [8]  F0 01 1A 00 61 00 00 00
 (1787061816.487733)  can0  231   [4]  01 00 FF FF
 (1787061816.487968)  can0  420   [7]  83 FB 00 00 00 00 00
 (1787061816.493457)  can0  210   [7]  FF FF 30 A0 90 00 0C
 (1787061816.493647)  can0  4B0   [8]  27 10 27 10 27 10 27 10
 (1787061816.497112)  can0  200   [7]  02 0C 02 03 02 0C 00
 (1787061816.497315)  can0  201   [8]  0A E1 7C EC 27 10 00 64
 (1787061816.501011)  can0  7DF   [8]  02 01 10 00 00 00 00 00
 (1787061816.501408)  can0  7E8   [8]  04 41 10 00 A1 00 00 00
 (1787061816.505169)  can0  430   [7]  98 86 00 00 2A 3F 60
 (1787061816.507105)  can0  200   [7]  02 0C 02 03 02 0C 00
 (1787061816.507310)  can0  201   [8]  0A E1 7C EC 27 10 00 64
 (1787061816.507534)  can0  210   [7]  FF FF 30 A0 90 00 0D
 (1787061816.507767)  can0  4B0   [8]  27 10 27 10 27 10 27 10
 (1787061816.512151)  can0  230   [8]  F0 01 1A 00 61 00 00 00
 (1787061816.512277)  can0  231   [4]  01 00 FF FF
 (1787061816.517101)  can0  200   [7]  02 0C 02 03 02 0C 00
 (1787061816.517313)  can0  201   [8]  0A E1 7C EC 27 10 00 64
 (1787061816.521452)  can0  210   [7]  FF FF 30 A0 90 00 0E
 (1787061816.521654)  can0  4B0   [8]  27 10 27 10 27 10 27 10
 (1787061816.527112)  can0  200   [7]  02 0B 02 03 02 0B 00
 (1787061816.527312)  can0  201   [8]  0A E1 7C EC 27 10 00 64
 (1787061816.535471)  can0  210   [7]  FF FF 30 A0 90 00 0F
 (1787061816.535666)  can0  4B0   [8]  27 10 27 10 27 10 27 10
 (1787061816.537197)  can0  200   [7]  02 0B 02 03 02 0B 00
 (1787061816.537297)  can0  201   [8]  0A EA 7C EC 27 10 00 64
 (1787061816.537565)  can0  230   [8]  F0 01 1A 00 61 00 00 00
 (1787061816.537725)  can0  231   [4]  01 00 FF FF
 (1787061816.547114)  can0  200   [7]  02 0B 02 03 02 0B 00
 (1787061816.547309)  can0  201   [8]  0A EA 7D B4 27 10 00 64
 (1787061816.549451)  can0  210   [7]  FF FF 30 A0 90 00 10
 (1787061816.549669)  can0  4B0   [8]  27 10 27 10 27 10 27 10
 (1787061816.550704)  can0  7DF   [8]  02 01 0B 00 00 00 00 00
 (1787061816.551238)  can0  7E8   [8]  03 41 0B 1E 00 00 00 00
 (1787061816.555169)  can0  430   [7]  96 87 00 00 2A 3F 60
 (1787061816.557074)  can0  200   [7]  02 0B 02 03 02 0B 00
 (1787061816.557302)  can0  201   [8]  0A EA 7D B4 27 10 00 64
 (1787061816.562111)  can0  230   [8]  F0 01 1A 00 61 00 00 00
 (1787061816.562262)  can0  231   [4]  01 00 FF FF
 (1787061816.563471)  can0  210   [7]  FF FF 30 A0 90 00 11
 (1787061816.563672)  can0  4B0   [8]  27 10 27 10 27 10 27 10
 (1787061816.567264)  can0  200   [7]  02 0B 02 03 02 0B 00
 (1787061816.567349)  can0  201   [8]  0A EA 7D B4 27 10 00 64
 (1787061816.577103)  can0  200   [7]  02 0B 02 03 02 0B 00
 (1787061816.577302)  can0  201   [8]  0A F0 7D B4 27 10 00 64
 (1787061816.577522)  can0  210   [7]  FF FF 30 A0 90 00 12
 (1787061816.577767)  can0  4B0   [8]  27 10 27 10 27 10 27 10
 (1787061816.587120)  can0  200   [7]  02 0B 02 03 02 0B 00
 (1787061816.587309)  can0  201   [8]  0A F0 7D B4 27 10 00 64
 (1787061816.587555)  can0  230   [8]  F0 01 1A 00 61 00 00 00
 (1787061816.587721)  can0  231   [4]  01 00 FF FF
 (1787061816.587948)  can0  420   [7]  83 FB 00 00 00 00 00
 (1787061816.591512)  can0  210   [7]  FF FF 30 A0 90 00 13
 (1787061816.591706)  can0  4B0   [8]  27 10 27 10 27 10 27 10
 (1787061816.597094)  can0  200   [7]  02 0B 02 03 02 0B 00
 (1787061816.597305)  can0  201   [8]  0A F0 7D 78 27 10 00 64
 (1787061816.600965)  can0  7DF   [8]  02 01 10 00 00 00 00 00
 (1787061816.601346)  can0  7E8   [8]  04 41 10 00 A1 00 00 00
 (1787061816.605169)  can0  430   [7]  99 86 00 00 2A 3F 60
 (1787061816.605465)  can0  210   [7]  FF FF 30 A0 90 00 14
 (1787061816.605696)  can0  4B0   [8]  27 10 27 10 27 10 27 10
 (1787061816.607098)  can0  200   [7]  02 0B 02 03 02 0B 00
 (1787061816.607309)  can0  201   [8]  0A F0 7D 78 27 10 00 64
 (1787061816.612126)  can0  230   [8]  F0 01 1A 00 61 00 00 00
 (1787061816.612265)  can0  231   [4]  01 00 FF FF
 (1787061816.617090)  can0  200   [7]  02 0B 02 03 02 0B 00
 (1787061816.617301)  can0  201   [8]  0A F0 7D 78 27 10 00 64
 (1787061816.619546)  can0  210   [7]  FF FF 30 A0 90 00 15
 (1787061816.619702)  can0  4B0   [8]  27 10 27 10 27 10 27 10
 (1787061816.627097)  can0  200   [7]  02 0B 02 03 02 0B 00
 (1787061816.627301)  can0  201   [8]  0A F2 7D A0 27 10 00 64
 (1787061816.633517)  can0  210   [7]  FF FF 30 A0 90 00 16
 (1787061816.633728)  can0  4B0   [8]  27 10 27 10 27 10 27 10
 (1787061816.637107)  can0  200   [7]  02 0B 02 03 02 0B 00
 (1787061816.637298)  can0  201   [8]  0A F2 7D A0 27 10 00 64
 (1787061816.637549)  can0  230   [8]  F0 01 1A 00 61 00 00 00
 (1787061816.637711)  can0  231   [4]  01 00 FF FF
 (1787061816.647107)  can0  200   [7]  02 0B 02 02 02 0B 00
 (1787061816.647304)  can0  201   [8]  0A F2 7D 28 27 10 00 64
 (1787061816.647527)  can0  210   [7]  FF FF 30 A0 90 00 17
 (1787061816.647765)  can0  4B0   [8]  27 10 27 10 27 10 27 10
 (1787061816.650611)  can0  7DF   [8]  02 01 0B 00 00 00 00 00
 (1787061816.650975)  can0  7E8   [8]  03 41 0B 1E 00 00 00 00
 (1787061816.655183)  can0  430   [7]  99 87 00 00 2A 3F 60
 (1787061816.657093)  can0  200   [7]  02 0B 02 02 02 0B 00
 (1787061816.657304)  can0  201   [8]  0A F2 7D 28 27 10 00 64
 (1787061816.661526)  can0  210   [7]  FF FF 30 A0 90 00 18
 (1787061816.661729)  can0  4B0   [8]  27 10 27 10 27 10 27 10
 (1787061816.662118)  can0  230   [8]  F0 01 1A 00 61 00 00 00
 (1787061816.662288)  can0  231   [4]  01 00 FF FF
 (1787061816.667096)  can0  200   [7]  02 0B 02 02 02 0B 00
 (1787061816.667303)  can0  201   [8]  0A F2 7D 28 27 10 00 64
 (1787061816.675581)  can0  210   [7]  FF FF 30 A0 90 00 19
 (1787061816.675755)  can0  4B0   [8]  27 10 27 10 27 10 27 10
 (1787061816.677164)  can0  200   [7]  02 0B 02 02 02 0B 00
 (1787061816.677318)  can0  201   [8]  0A F2 7D 00 27 10 00 64
 (1787061816.687092)  can0  200   [7]  02 0B 02 02 02 0B 00
 (1787061816.687296)  can0  201   [8]  0A F2 7D 00 27 10 00 64
 (1787061816.687533)  can0  230   [8]  F0 01 1A 00 61 00 00 00
 (1787061816.687705)  can0  231   [4]  01 00 FF FF
 (1787061816.687934)  can0  420   [7]  83 FB 00 00 00 00 00
 (1787061816.689541)  can0  210   [7]  FF FF 30 A0 90 00 1A
 (1787061816.689752)  can0  4B0   [8]  27 10 27 10 27 10 27 10
 (1787061816.697094)  can0  200   [7]  02 0B 02 02 02 0B 00
 (1787061816.697295)  can0  201   [8]  0A F2 7D 00 27 10 00 64
 (1787061816.700525)  can0  7DF   [8]  02 01 10 00 00 00 00 00
 (1787061816.700931)  can0  7E8   [8]  04 41 10 00 9F 00 00 00
 (1787061816.703560)  can0  210   [7]  FF FF 30 A0 90 00 1B
 (1787061816.703775)  can0  4B0   [8]  27 10 27 10 27 10 27 10
 (1787061816.705153)  can0  430   [7]  96 88 00 00 2A 3F 60
 (1787061816.707083)  can0  200   [7]  02 0B 02 02 02 0B 00
 (1787061816.707295)  can0  201   [8]  0A F5 7D 00 27 10 00 64
 (1787061816.712128)  can0  230   [8]  F0 01 1A 00 61 00 00 00
 (1787061816.712263)  can0  231   [4]  01 00 FF FF
 (1787061816.717127)  can0  200   [7]  02 0B 02 02 02 0B 00
 (1787061816.717297)  can0  201   [8]  0A F5 7D 00 27 10 00 64
 (1787061816.717537)  can0  210   [7]  FF FF 30 A0 90 00 1C
 (1787061816.717768)  can0  4B0   [8]  27 10 27 10 27 10 27 10
 (1787061816.727101)  can0  200   [7]  02 0B 02 02 02 0B 00
 (1787061816.727300)  can0  201   [8]  0A F5 7D 3C 27 10 00 64
 (1787061816.731575)  can0  210   [7]  FF FF 30 A0 90 00 1D
 (1787061816.731778)  can0  4B0   [8]  27 10 27 10 27 10 27 10
 (1787061816.737087)  can0  200   [7]  02 0B 02 02 02 0B 00
 (1787061816.737289)  can0  201   [8]  0A F5 7D 3C 27 10 00 64
 (1787061816.737529)  can0  230   [8]  F0 01 1A 00 61 00 00 00
 (1787061816.737698)  can0  231   [4]  01 00 FF FF
 (1787061816.745592)  can0  210   [7]  FF FF 30 A0 90 00 1E
 (1787061816.745788)  can0  4B0   [8]  27 10 27 10 27 10 27 10
 (1787061816.747113)  can0  200   [7]  02 0B 02 02 02 0B 00
 (1787061816.747300)  can0  201   [8]  0A F5 7C EC 27 10 00 64
 (1787061816.751473)  can0  7DF   [8]  02 01 0B 00 00 00 00 00
 (1787061816.751855)  can0  7E8   [8]  03 41 0B 1E 00 00 00 00
 (1787061816.755175)  can0  430   [7]  96 87 00 00 2A 3F 60
 (1787061816.757072)  can0  200   [7]  02 0B 02 02 02 0B 00
 (1787061816.757288)  can0  201   [8]  0A F1 7C EC 27 10 00 64
 (1787061816.759589)  can0  210   [7]  FF FF 30 A0 90 00 1F
 (1787061816.759793)  can0  4B0   [8]  27 10 27 10 27 10 27 10
 (1787061816.762094)  can0  230   [8]  F0 01 1A 00 61 00 00 00
 (1787061816.762242)  can0  231   [4]  01 00 FF FF
 (1787061816.767084)  can0  200   [7]  02 0B 02 02 02 0B 00
 (1787061816.767283)  can0  201   [8]  0A F1 7C EC 27 10 00 64
 (1787061816.773670)  can0  210   [7]  FF FF 30 A0 90 00 20
 (1787061816.773806)  can0  4B0   [8]  27 10 27 10 27 10 27 10
 (1787061816.777088)  can0  200   [7]  02 0B 02 02 02 0B 00
 (1787061816.777299)  can0  201   [8]  0A F1 7C B0 27 10 00 64
 (1787061816.787093)  can0  200   [7]  02 0B 02 02 02 0B 00
 (1787061816.787294)  can0  201   [8]  0A F1 7C B0 27 10 00 64
 (1787061816.787535)  can0  230   [8]  F0 01 1A 00 61 00 00 00
 (1787061816.787753)  can0  210   [7]  FF FF 30 A0 90 00 21
 (1787061816.787927)  can0  231   [4]  01 00 FF FF
 (1787061816.788154)  can0  420   [7]  83 FB 00 00 00 00 00
 (1787061816.788387)  can0  4B0   [8]  27 10 27 10 27 10 27 10
 (1787061816.797090)  can0  200   [7]  02 0B 02 02 02 0B 00
 (1787061816.797290)  can0  201   [8]  0A EF 7C D8 27 10 00 64
 (1787061816.801403)  can0  7DF   [8]  02 01 10 00 00 00 00 00
 (1787061816.801616)  can0  210   [7]  FF FF 30 A0 90 00 22
 (1787061816.801846)  can0  4B0   [8]  27 10 27 10 27 10 27 10
 (1787061816.802079)  can0  7DF   [8]  02 01 42 00 00 00 00 00
 (1787061816.802335)  can0  7E8   [8]  04 41 10 00 9F 00 00 00
 (1787061816.805170)  can0  430   [7]  96 86 00 00 2A 3F 60
 (1787061816.807083)  can0  200   [7]  02 0B 02 02 02 0B 00
 (1787061816.807286)  can0  201   [8]  0A EF 7C D8 27 10 00 64
 (1787061816.812104)  can0  230   [8]  F0 01 1A 00 61 00 00 00
 (1787061816.812247)  can0  231   [4]  01 00 FF FF
 (1787061816.815631)  can0  210   [7]  FF FF 30 A0 90 00 23
 (1787061816.815820)  can0  4B0   [8]  27 10 27 10 27 10 27 10
 (1787061816.817148)  can0  200   [7]  02 0B 02 02 02 0B 00
 (1787061816.817307)  can0  201   [8]  0A EF 7C D8 27 10 00 64
 (1787061816.827096)  can0  200   [7]  02 0B 02 02 02 0B 00
 (1787061816.827292)  can0  201   [8]  0A EF 7C D8 27 10 00 64
 (1787061816.829611)  can0  210   [7]  FF FF 30 A0 90 00 24
 (1787061816.829833)  can0  4B0   [8]  27 10 27 10 27 10 27 10
 (1787061816.837080)  can0  200   [7]  02 0B 02 02 02 0B 00
 (1787061816.837281)  can0  201   [8]  0A F4 7C D8 27 10 00 64
 (1787061816.837527)  can0  230   [8]  F0 01 1A 00 61 00 00 00
 (1787061816.837692)  can0  231   [4]  01 00 FF FF
 (1787061816.843644)  can0  210   [7]  FF FF 30 A0 90 00 25
 (1787061816.843836)  can0  4B0   [8]  27 10 27 10 27 10 27 10
 (1787061816.847092)  can0  200   [7]  02 0B 02 02 02 0B 00
 (1787061816.847300)  can0  201   [8]  0A F4 7D 64 27 10 00 64
 (1787061816.850636)  can0  7DF   [8]  02 01 0B 00 00 00 00 00
 (1787061816.851044)  can0  7E8   [8]  03 41 0B 1E 00 00 00 00
 (1787061816.855171)  can0  430   [7]  99 86 00 00 2A 3F 60
 (1787061816.857066)  can0  200   [7]  02 0B 02 02 02 0B 00
 (1787061816.857273)  can0  201   [8]  0A F4 7D 64 27 10 00 64
 (1787061816.857609)  can0  210   [7]  FF FF 30 A0 90 00 26
 (1787061816.857842)  can0  4B0   [8]  27 10 27 10 27 10 27 10
 (1787061816.862114)  can0  230   [8]  F0 01 1A 00 61 00 00 00
 (1787061816.862247)  can0  231   [4]  01 00 FF FF
 (1787061816.867071)  can0  200   [7]  02 0B 02 02 02 0B 00
 (1787061816.867277)  can0  201   [8]  0A F4 7D 64 27 10 00 64
 (1787061816.871726)  can0  210   [7]  FF FF 30 A0 90 00 27
 (1787061816.871883)  can0  4B0   [8]  27 10 27 10 27 10 27 10
 (1787061816.877080)  can0  200   [7]  02 0A 02 02 02 0A 00
 (1787061816.877287)  can0  201   [8]  0A FA 7D 64 27 10 00 64
 (1787061816.885700)  can0  210   [7]  FF FF 30 A0 90 00 28
 (1787061816.885871)  can0  4B0   [8]  27 10 27 10 27 10 27 10
 (1787061816.887120)  can0  200   [7]  02 0A 02 02 02 0A 00
 (1787061816.887314)  can0  201   [8]  0A FA 7D 64 27 10 00 64
 (1787061816.887545)  can0  230   [8]  F0 01 1A 00 61 00 00 00
 (1787061816.887712)  can0  231   [4]  01 00 FF FF
 (1787061816.887948)  can0  420   [7]  83 FB 00 00 00 00 00
 (1787061816.897088)  can0  200   [7]  02 0A 02 02 02 0A 00
 (1787061816.897280)  can0  201   [8]  0A FA 7D 78 27 10 00 64
 (1787061816.899682)  can0  210   [7]  FF FF 30 A0 90 00 29
 (1787061816.899868)  can0  4B0   [8]  27 10 27 10 27 10 27 10
 (1787061816.901690)  can0  7DF   [8]  02 01 10 00 00 00 00 00
 (1787061816.902149)  can0  7E8   [8]  04 41 10 00 9D 00 00 00
 (1787061816.905174)  can0  430   [7]  99 86 00 00 2A 3F 60
 (1787061816.907115)  can0  200   [7]  02 0A 02 02 02 0A 00
 (1787061816.907345)  can0  201   [8]  0A FA 7D 78 27 10 00 64
 (1787061816.912094)  can0  230   [8]  F0 01 1A 00 61 00 00 00
 (1787061816.912242)  can0  231   [4]  01 00 FF FF
 (1787061816.913669)  can0  210   [7]  FF FF 30 A0 90 00 2A
 (1787061816.913877)  can0  4B0   [8]  27 10 27 10 27 10 27 10
 (1787061816.917185)  can0  200   [7]  02 0A 02 02 02 0A 00
 (1787061816.917285)  can0  201   [8]  0A FA 7D 78 27 10 00 64
 (1787061816.927080)  can0  200   [7]  02 0A 02 02 02 0A 00
 (1787061816.927285)  can0  201   [8]  0A F9 7D 64 27 10 00 64
 (1787061816.927670)  can0  210   [7]  FF FF 30 A0 90 00 2B
 (1787061816.927892)  can0  4B0   [8]  27 10 27 10 27 10 27 10
 (1787061816.937080)  can0  200   [7]  02 0A 02 02 02 0A 00
 (1787061816.937281)  can0  201   [8]  0A F9 7D 64 27 10 00 64
 (1787061816.937519)  can0  230   [8]  F0 01 1A 00 61 00 00 00
 (1787061816.937687)  can0  231   [4]  01 00 FF FF
 (1787061816.941690)  can0  210   [7]  FF FF 30 A0 90 00 2C
 (1787061816.941901)  can0  4B0   [8]  27 10 27 10 27 10 27 10
 (1787061816.947076)  can0  200   [7]  02 0A 02 02 02 0A 00
 (1787061816.947282)  can0  201   [8]  0A F9 7C EC 27 10 00 64
 (1787061816.950699)  can0  7DF   [8]  02 01 0B 00 00 00 00 00
 (1787061816.951213)  can0  7E8   [8]  03 41 0B 1E 00 00 00 00
 (1787061816.955174)  can0  430   [7]  99 87 00 00 2A 3F 60
 (1787061816.955673)  can0  210   [7]  FF FF 30 A0 90 00 2D
 (1787061816.955903)  can0  4B0   [8]  27 10 27 10 27 10 27 10
 (1787061816.957126)  can0  200   [7]  02 0A 02 02 02 0A 00
 (1787061816.957343)  can0  201   [8]  0A F9 7C EC 27 10 00 64
 (1787061816.962083)  can0  230   [8]  F0 01 1A 00 61 00 00 00
 (1787061816.962226)  can0  231   [4]  01 00 FF FF
 (1787061816.967056)  can0  200   [7]  02 0A 02 02 02 0A 00
 (1787061816.967271)  can0  201   [8]  0A F1 7C EC 27 10 00 64
 (1787061816.969762)  can0  210   [7]  FF FF 30 A0 90 00 2E
 (1787061816.969918)  can0  4B0   [8]  27 10 27 10 27 10 27 10
 (1787061816.977100)  can0  200   [7]  02 0B 02 02 02 0B 00
 (1787061816.977276)  can0  201   [8]  0A F1 7C 60 27 10 00 64
 (1787061816.983770)  can0  210   [7]  FF FF 30 A0 90 00 2F
 (1787061816.983929)  can0  4B0   [8]  27 10 27 10 27 10 27 10
 (1787061816.987084)  can0  200   [7]  02 0B 02 02 02 0B 00
 (1787061816.987280)  can0  201   [8]  0A F1 7C 60 27 10 00 64
 (1787061816.987521)  can0  230   [8]  F0 01 1A 00 61 00 00 00
 (1787061816.987686)  can0  231   [4]  01 00 FF FF
 (1787061816.987913)  can0  420   [7]  83 FB 00 00 00 00 00
 (1787061816.997080)  can0  200   [7]  02 0A 02 02 02 0A 00
 (1787061816.997274)  can0  201   [8]  0A F1 7C 60 27 10 00 64
 (1787061816.997698)  can0  210   [7]  FF FF 30 A0 90 00 30
 (1787061816.997931)  can0  4B0   [8]  27 10 27 10 27 10 27 10
 (1787061817.001111)  can0  7DF   [8]  02 01 10 00 00 00 00 00
 (1787061817.001510)  can0  7E8   [8]  04 41 10 00 A1 00 00 00
 (1787061817.005171)  can0  430   [7]  96 87 00 00 2A 3F 60
 (1787061817.007051)  can0  200   [7]  02 0A 02 02 02 0A 00
 (1787061817.007275)  can0  201   [8]  0A F3 7C 60 27 10 00 64
 (1787061817.011724)  can0  210   [7]  FF FF 30 A0 90 00 31
 (1787061817.011931)  can0  4B0   [8]  27 10 27 10 27 10 27 10
 (1787061817.012187)  can0  230   [8]  F0 01 1A 00 61 00 00 00
 (1787061817.012342)  can0  231   [4]  01 00 FF FF
 (1787061817.017070)  can0  200   [7]  02 0A 02 02 02 0A 00
 (1787061817.017279)  can0  201   [8]  0A F3 7C 60 27 10 00 64
 (1787061817.025747)  can0  210   [7]  FF FF 30 A0 90 00 32
 (1787061817.025947)  can0  4B0   [8]  27 10 27 10 27 10 27 10
 (1787061817.027070)  can0  200   [7]  02 0A 02 02 02 0A 00
 (1787061817.027286)  can0  201   [8]  0A F3 7D 28 27 10 00 64
 (1787061817.037063)  can0  200   [7]  02 0A 02 02 02 0A 00
 (1787061817.037266)  can0  201   [8]  0A F3 7D 28 27 10 00 64
 (1787061817.037515)  can0  230   [8]  F0 01 1A 00 61 00 00 00
 (1787061817.037682)  can0  231   [4]  01 00 FF FF
 (1787061817.039736)  can0  210   [7]  FF FF 30 A0 90 00 33
 (1787061817.039961)  can0  4B0   [8]  27 10 27 10 27 10 27 10
 (1787061817.047101)  can0  200   [7]  02 0A 02 02 02 0A 00
 (1787061817.047291)  can0  201   [8]  0A FB 7D C8 27 10 00 64
 (1787061817.050629)  can0  7DF   [8]  02 01 0B 00 00 00 00 00
 (1787061817.051014)  can0  7E8   [8]  03 41 0B 1E 00 00 00 00
 (1787061817.053759)  can0  210   [7]  FF FF 30 A0 90 00 34
 (1787061817.053973)  can0  4B0   [8]  27 10 27 10 27 10 27 10
 (1787061817.055157)  can0  430   [7]  96 87 00 00 2A 3F 60
 (1787061817.057050)  can0  200   [7]  02 0A 02 02 02 0A 00
 (1787061817.057267)  can0  201   [8]  0A FB 7D C8 27 10 00 64
 (1787061817.062067)  can0  230   [8]  F0 01 1A 00 61 00 00 00
 (1787061817.062220)  can0  231   [4]  01 00 FF FF
 (1787061817.067058)  can0  200   [7]  02 0A 02 02 02 0A 00
 (1787061817.067270)  can0  201   [8]  0A FB 7D C8 27 10 00 64
 (1787061817.067793)  can0  210   [7]  FF FF 30 A0 90 00 35
 (1787061817.067992)  can0  4B0   [8]  27 10 27 10 27 10 27 10
 (1787061817.077059)  can0  200   [7]  02 0A 02 02 02 0A 00
 (1787061817.077264)  can0  201   [8]  0A FB 7D A0 27 10 00 64
 (1787061817.081801)  can0  210   [7]  FF FF 30 A0 90 00 36
 (1787061817.081981)  can0  4B0   [8]  27 10 27 10 27 10 27 10
 (1787061817.087070)  can0  200   [7]  02 0A 02 02 02 0A 00
 (1787061817.087271)  can0  201   [8]  0A FB 7D A0 27 10 00 64
 (1787061817.087510)  can0  230   [8]  F0 01 1A 00 61 00 00 00
 (1787061817.087681)  can0  231   [4]  01 00 FF FF
 (1787061817.087911)  can0  420   [7]  83 FB 00 00 00 00 00
 (1787061817.088149)  can0  620   [8]  0D 40 12 1E 10 00 01 20
 (1787061817.088392)  can0  630   [8]  84 01 9F 00 00 00 4F 4F
 (1787061817.095817)  can0  210   [7]  FF FF 30 A0 90 00 37
 (1787061817.096004)  can0  4B0   [8]  27 10 27 10 27 10 27 10
 (1787061817.097081)  can0  200   [7]  02 0A 02 02 02 0A 00
 (1787061817.097289)  can0  201   [8]  0A F8 7C C4 27 10 00 64
 (1787061817.101033)  can0  7DF   [8]  02 01 10 00 00 00 00 00
 (1787061817.101430)  can0  7E8   [8]  04 41 10 00 A1 00 00 00
 (1787061817.105176)  can0  430   [7]  96 86 00 00 2A 3F 60
 (1787061817.107061)  can0  200   [7]  02 0A 02 02 02 0A 00
 (1787061817.107275)  can0  201   [8]  0A F8 7C C4 27 10 00 64
 (1787061817.109788)  can0  210   [7]  FF FF 30 A0 90 00 38
 (1787061817.109995)  can0  4B0   [8]  27 10 27 10 27 10 27 10
 (1787061817.112083)  can0  230   [8]  F0 01 1A 00 61 00 00 00
 (1787061817.112234)  can0  231   [4]  01 00 FF FF
 (1787061817.117050)  can0  200   [7]  02 0A 02 02 02 0A 00
 (1787061817.117264)  can0  201   [8]  0A F8 7C C4 27 10 00 64
 (1787061817.123813)  can0  210   [7]  FF FF 30 A0 90 00 39
 (1787061817.124011)  can0  4B0   [8]  27 10 27 10 27 10 27 10
 (1787061817.127252)  can0  200   [7]  02 0A 02 02 02 0A 00
 (1787061817.127342)  can0  201   [8]  0A F8 7C C4 27 10 00 64
 (1787061817.137056)  can0  200   [7]  02 0A 02 02 02 0A 00
 (1787061817.137263)  can0  201   [8]  0A F2 7C C4 27 10 00 64
 (1787061817.137496)  can0  230   [8]  F0 01 1A 00 61 00 00 00
 (1787061817.137666)  can0  231   [4]  01 00 FF FF
 (1787061817.137893)  can0  210   [7]  FF FF 30 A0 90 00 3A
 (1787061817.138123)  can0  4B0   [8]  27 10 27 10 27 10 27 10
 (1787061817.147069)  can0  200   [7]  02 0A 02 02 02 0A 00
 (1787061817.147265)  can0  201   [8]  0A F2 7C 88 27 10 00 64
 (1787061817.151266)  can0  7DF   [8]  02 01 0B 00 00 00 00 00
 (1787061817.151640)  can0  7E8   [8]  03 41 0B 1E 00 00 00 00
 (1787061817.151858)  can0  210   [7]  FF FF 30 A0 90 00 3B
 (1787061817.152088)  can0  4B0   [8]  27 10 27 10 27 10 27 10
 (1787061817.155168)  can0  430   [7]  99 86 00 00 2A 3F 60
 (1787061817.157057)  can0  200   [7]  02 0A 02 02 02 0A 00
 (1787061817.157261)  can0  201   [8]  0A F2 7C 88 27 10 00 64
 (1787061817.162064)  can0  230   [8]  F0 01 1A 00 61 00 00 00
 (1787061817.162205)  can0  231   [4]  01 00 FF FF
 (1787061817.165875)  can0  210   [7]  FF FF 30 A0 90 00 3C
 (1787061817.166037)  can0  4B0   [8]  27 10 27 10 27 10 27 10
 (1787061817.167086)  can0  200   [7]  02 0A 02 02 02 0A 00
 (1787061817.167296)  can0  201   [8]  0A F2 7C 88 27 10 00 64
 (1787061817.177057)  can0  200   [7]  02 0A 02 02 02 0A 00
 (1787061817.177263)  can0  201   [8]  0A F3 7C 88 27 10 00 64
 (1787061817.179850)  can0  210   [7]  FF FF 30 A0 90 00 3D
 (1787061817.180051)  can0  4B0   [8]  27 10 27 10 27 10 27 10
 (1787061817.187065)  can0  200   [7]  02 0A 02 02 02 0A 00
 (1787061817.187263)  can0  201   [8]  0A F3 7C 88 27 10 00 64
 (1787061817.187505)  can0  230   [8]  F0 01 1A 00 61 00 00 00
 (1787061817.187673)  can0  231   [4]  01 00 FF FF
 (1787061817.187904)  can0  420   [7]  83 FB 00 00 00 00 00
 (1787061817.193866)  can0  210   [7]  FF FF 30 A0 90 00 3E
 (1787061817.194062)  can0  4B0   [8]  27 10 27 10 27 10 27 10
 (1787061817.197056)  can0  200   [7]  02 0A 02 02 02 0A 00
 (1787061817.197263)  can0  201   [8]  0A F3 7D 14 27 10 00 64
 (1787061817.202183)  can0  7DF   [8]  02 01 10 00 00 00 00 00
 (1787061817.202644)  can0  7E8   [8]  04 41 10 00 9A 00 00 00
 (1787061817.205202)  can0  430   [7]  99 87 00 00 2A 3F 60
 (1787061817.207066)  can0  200   [7]  02 0A 02 02 02 0A 00
 (1787061817.207263)  can0  201   [8]  0A F3 7D 14 27 10 00 64
 (1787061817.207855)  can0  210   [7]  FF FF 30 A0 90 00 3F
 (1787061817.208072)  can0  4B0   [8]  27 10 27 10 27 10 27 10
 (1787061817.212095)  can0  230   [8]  F0 01 1A 00 61 00 00 00
 (1787061817.212216)  can0  231   [4]  01 00 FF FF
 (1787061817.217055)  can0  200   [7]  02 0A 02 02 02 0A 00
 (1787061817.217254)  can0  201   [8]  0A F3 7D 14 27 10 00 64
 (1787061817.221868)  can0  210   [7]  FF FF 30 A0 90 00 40
 (1787061817.222073)  can0  4B0   [8]  27 10 27 10 27 10 27 10
 (1787061817.227039)  can0  200   [7]  02 0A 02 02 02 0A 00
 (1787061817.227262)  can0  201   [8]  0A F2 7D 00 27 10 00 64
 (1787061817.235887)  can0  210   [7]  FF FF 30 A0 90 00 41
 (1787061817.236075)  can0  4B0   [8]  27 10 27 10 27 10 27 10
 (1787061817.237064)  can0  200   [7]  02 0A 02 02 02 0A 00
 (1787061817.237278)  can0  201   [8]  0A F2 7D 00 27 10 00 64
 (1787061817.237519)  can0  230   [8]  F0 01 1A 00 61 00 00 00
 (1787061817.237687)  can0  231   [4]  01 00 FF FF
 (1787061817.247071)  can0  200   [7]  02 0A 02 02 02 0A 00
 (1787061817.247266)  can0  201   [8]  0A F2 7C EC 27 10 00 64
 (1787061817.249874)  can0  210   [7]  FF FF 30 A0 90 00 42
 (1787061817.250081)  can0  4B0   [8]  27 10 27 10 27 10 27 10
 (1787061817.251548)  can0  7DF   [8]  02 01 0B 00 00 00 00 00
 (1787061817.251925)  can0  7E8   [8]  03 41 0B 1E 00 00 00 00
 (1787061817.255178)  can0  430   [7]  96 87 00 00 2A 3F 60
 (1787061817.257034)  can0  200   [7]  02 0A 02 02 02 0A 00
 (1787061817.257249)  can0  201   [8]  0A F2 7C EC 27 10 00 64
 (1787061817.262074)  can0  230   [8]  F0 01 1A 00 61 00 00 00
 (1787061817.262200)  can0  231   [4]  01 00 FF FF
 (1787061817.263869)  can0  210   [7]  FF FF 30 A0 90 00 43
 (1787061817.264083)  can0  4B0   [8]  27 10 27 10 27 10 27 10
 (1787061817.267028)  can0  200   [7]  02 0A 02 02 02 0A 00
 (1787061817.267247)  can0  201   [8]  0A F0 7C EC 27 10 00 64
 (1787061817.277047)  can0  200   [7]  02 0A 02 02 02 0A 00
 (1787061817.277254)  can0  201   [8]  0A F0 7C D8 27 10 00 64
 (1787061817.277868)  can0  210   [7]  FF FF 30 A0 90 00 44
 (1787061817.278096)  can0  4B0   [8]  27 10 27 10 27 10 27 10
 (1787061817.287091)  can0  200   [7]  02 0A 02 02 02 0A 00
 (1787061817.287265)  can0  201   [8]  0A F0 7C D8 27 10 00 64
 (1787061817.287511)  can0  230   [8]  F0 01 1A 00 61 00 00 00
 (1787061817.287674)  can0  231   [4]  01 00 FF FF
 (1787061817.287909)  can0  420   [7]  83 FB 00 00 00 00 00
 (1787061817.291908)  can0  210   [7]  FF FF 30 A0 90 00 45
 (1787061817.292121)  can0  4B0   [8]  27 10 27 10 27 10 27 10
 (1787061817.297043)  can0  200   [7]  02 0A 02 02 02 0A 00
 (1787061817.297251)  can0  201   [8]  0A F0 7C D8 27 10 00 64
 (1787061817.300368)  can0  7DF   [8]  02 01 10 00 00 00 00 00
 (1787061817.300761)  can0  7E8   [8]  04 41 10 00 A1 00 00 00
 (1787061817.305181)  can0  430   [7]  96 87 00 00 2A 3F 60
 (1787061817.305881)  can0  210   [7]  FF FF 30 A0 90 00 46
 (1787061817.306110)  can0  4B0   [8]  27 10 27 10 27 10 27 10
 (1787061817.307036)  can0  200   [7]  02 0A 02 02 02 0A 00
 (1787061817.307266)  can0  201   [8]  0A ED 7C D8 27 10 00 64
 (1787061817.312075)  can0  230   [8]  F0 01 1A 00 61 00 00 00
 (1787061817.312215)  can0  231   [4]  01 00 FF FF
 (1787061817.317061)  can0  200   [7]  02 0A 02 02 02 0A 00
 (1787061817.317252)  can0  201   [8]  0A ED 7C D8 27 10 00 64
 (1787061817.319919)  can0  210   [7]  FF FF 30 A0 90 00 47
 (1787061817.320120)  can0  4B0   [8]  27 10 27 10 27 10 27 10
 (1787061817.327062)  can0  200   [7]  02 0A 02 02 02 0A 00
 (1787061817.327251)  can0  201   [8]  0A ED 7C C4 27 10 00 64
 (1787061817.333942)  can0  210   [7]  FF FF 30 A0 90 00 48
 (1787061817.334138)  can0  4B0   [8]  27 10 27 10 27 10 27 10
 (1787061817.337051)  can0  200   [7]  02 0A 02 02 02 0A 00
 (1787061817.337243)  can0  201   [8]  0A ED 7C C4 27 10 00 64
 (1787061817.337483)  can0  230   [8]  F0 01 1A 00 61 00 00 00
 (1787061817.337652)  can0  231   [4]  01 00 FF FF
 (1787061817.347051)  can0  200   [7]  02 0A 02 02 02 0A 00
 (1787061817.347255)  can0  201   [8]  0A F3 7D 3C 27 10 00 64
 (1787061817.347917)  can0  210   [7]  FF FF 30 A0 90 00 49
 (1787061817.348139)  can0  4B0   [8]  27 10 27 10 27 10 27 10
 (1787061817.350791)  can0  7DF   [8]  02 01 0B 00 00 00 00 00
 (1787061817.351210)  can0  7E8   [8]  03 41 0B 1E 00 00 00 00
 (1787061817.355175)  can0  430   [7]  99 86 00 00 2A 3F 60
 (1787061817.357027)  can0  200   [7]  02 0A 02 02 02 0A 00
 (1787061817.357236)  can0  201   [8]  0A F3 7D 3C 27 10 00 64
 (1787061817.361931)  can0  210   [7]  FF FF 30 A0 90 00 4A
 (1787061817.362152)  can0  230   [8]  F0 01 1A 00 61 00 00 00
 (1787061817.362322)  can0  231   [4]  01 00 FF FF
 (1787061817.362556)  can0  4B0   [8]  27 10 27 10 27 10 27 10
 (1787061817.367056)  can0  200   [7]  02 0A 02 02 02 0A 00
 (1787061817.367249)  can0  201   [8]  0A F3 7D 3C 27 10 00 64
 (1787061817.375952)  can0  210   [7]  FF FF 30 A0 90 00 4B
 (1787061817.376155)  can0  4B0   [8]  27 10 27 10 27 10 27 10
 (1787061817.377026)  can0  200   [7]  02 0A 02 02 02 0A 00
 (1787061817.377258)  can0  201   [8]  0A F3 7D 78 27 10 00 64
 (1787061817.387040)  can0  200   [7]  02 0A 02 02 02 0A 00
 (1787061817.387252)  can0  201   [8]  0A F3 7D 78 27 10 00 64
 (1787061817.387486)  can0  230   [8]  F0 01 1A 00 61 00 00 00
 (1787061817.387658)  can0  231   [4]  01 00 FF FF
 (1787061817.387885)  can0  420   [7]  83 FB 00 00 00 00 00
 (1787061817.389949)  can0  210   [7]  FF FF 30 A0 90 00 4C
 (1787061817.390155)  can0  4B0   [8]  27 10 27 10 27 10 27 10
 (1787061817.397036)  can0  200   [7]  02 0A 02 02 02 0A 00
 (1787061817.397251)  can0  201   [8]  0A F4 7D 14 27 10 00 64
 (1787061817.400392)  can0  7DF   [8]  02 01 10 00 00 00 00 00
 (1787061817.400768)  can0  7E8   [8]  04 41 10 00 9F 00 00 00
 (1787061817.403974)  can0  210   [7]  FF FF 30 A0 90 00 4D
 (1787061817.404173)  can0  4B0   [8]  27 10 27 10 27 10 27 10
 (1787061817.405155)  can0  430   [7]  96 86 00 00 2A 3F 60
 (1787061817.407052)  can0  200   [7]  02 0A 02 02 02 0A 00
 (1787061817.407237)  can0  201   [8]  0A F4 7D 14 27 10 00 64
 (1787061817.412067)  can0  230   [8]  F0 01 1A 00 61 00 00 00
 (1787061817.412199)  can0  231   [4]  01 00 FF FF
 (1787061817.417019)  can0  200   [7]  02 0A 02 02 02 0A 00
 (1787061817.417232)  can0  201   [8]  0A F4 7D 14 27 10 00 64
 (1787061817.417952)  can0  210   [7]  FF FF 30 A0 90 00 4E
 (1787061817.418186)  can0  4B0   [8]  27 10 27 10 27 10 27 10
 (1787061817.427044)  can0  200   [7]  02 0A 02 02 02 0A 00
 (1787061817.427237)  can0  201   [8]  0A F4 7D 14 27 10 00 64
 (1787061817.431981)  can0  210   [7]  FF FF 30 A0 90 00 4F
 (1787061817.432193)  can0  4B0   [8]  27 10 27 10 27 10 27 10
 (1787061817.437041)  can0  200   [7]  02 0A 02 02 02 0A 00
 (1787061817.437240)  can0  201   [8]  0A EF 7D 14 27 10 00 64
 (1787061817.437534)  can0  230   [8]  F0 01 1A 00 61 00 00 00
 (1787061817.437654)  can0  231   [4]  01 00 FF FF
 (1787061817.446030)  can0  210   [7]  FF FF 30 A0 90 00 50
 (1787061817.446207)  can0  4B0   [8]  27 10 27 10 27 10 27 10
 (1787061817.447038)  can0  200   [7]  02 0A 02 02 02 0A 00
 (1787061817.447267)  can0  201   [8]  0A EF 7C 9C 27 10 00 64
 (1787061817.450803)  can0  7DF   [8]  02 01 0B 00 00 00 00 00
 (1787061817.451208)  can0  7E8   [8]  03 41 0B 1E 00 00 00 00
 (1787061817.455179)  can0  430   [7]  99 86 00 00 2A 3F 60
 (1787061817.457002)  can0  200   [7]  02 0A 02 02 02 0A 00
 (1787061817.457229)  can0  201   [8]  0A EF 7C 9C 27 10 00 64
 (1787061817.459983)  can0  210   [7]  FF FF 30 A0 90 00 51
 (1787061817.460212)  can0  4B0   [8]  27 10 27 10 27 10 27 10
 (1787061817.462029)  can0  230   [8]  F0 01 1A 00 61 00 00 00
 (1787061817.462193)  can0  231   [4]  01 00 FF FF
 (1787061817.467054)  can0  200   [7]  02 0A 02 02 02 0A 00
 (1787061817.467238)  can0  201   [8]  0A EF 7C 9C 27 10 00 64
 (1787061817.474017)  can0  210   [7]  FF FF 30 A0 90 00 52
 (1787061817.474218)  can0  4B0   [8]  27 10 27 10 27 10 27 10
 (1787061817.477028)  can0  200   [7]  02 0A 02 02 02 0A 00
 (1787061817.477242)  can0  201   [8]  0A E5 7C 9C 27 10 00 64
 (1787061817.487039)  can0  200   [7]  02 0A 02 02 02 0A 00
 (1787061817.487233)  can0  201   [8]  0A E5 7C 9C 27 10 00 64
 (1787061817.487478)  can0  230   [8]  F0 01 1A 00 61 00 00 00
 (1787061817.487645)  can0  231   [4]  01 00 FF FF
 (1787061817.487868)  can0  420   [7]  83 FB 00 00 00 00 00
 (1787061817.488086)  can0  210   [7]  FF FF 30 A0 90 00 53
 (1787061817.488320)  can0  4B0   [8]  27 10 27 10 27 10 27 10
 (1787061817.497026)  can0  200   [7]  02 0B 02 03 02 0B 00
 (1787061817.497227)  can0  201   [8]  0A E5 7C 38 27 10 00 64
 (1787061817.501280)  can0  7DF   [8]  02 01 10 00 00 00 00 00
 (1787061817.501671)  can0  7E8   [8]  04 41 10 00 A1 00 00 00
 (1787061817.502016)  can0  210   [7]  FF FF 30 A0 90 00 54
 (1787061817.502249)  can0  4B0   [8]  27 10 27 10 27 10 27 10
 (1787061817.505170)  can0  430   [7]  99 87 00 00 2A 3F 60
 (1787061817.507095)  can0  200   [7]  02 0B 02 03 02 0B 00
 (1787061817.507307)  can0  201   [8]  0A E5 7C 38 27 10 00 64
 (1787061817.512052)  can0  230   [8]  F0 01 1A 00 61 00 00 00
 (1787061817.512198)  can0  231   [4]  01 00 FF FF
 (1787061817.516049)  can0  210   [7]  FF FF 30 A0 90 00 55
 (1787061817.516241)  can0  4B0   [8]  27 10 27 10 27 10 27 10
 (1787061817.517066)  can0  200   [7]  02 0B 02 03 02 0B 00
 (1787061817.517286)  can0  201   [8]  0A E5 7C 38 27 10 00 64
 (1787061817.527026)  can0  200   [7]  02 0B 02 03 02 0B 00
 (1787061817.527227)  can0  201   [8]  0A E0 7B D4 27 10 00 64
 (1787061817.530039)  can0  210   [7]  FF FF 30 A0 90 00 56
 (1787061817.530254)  can0  4B0   [8]  27 10 27 10 27 10 27 10
 (1787061817.537026)  can0  200   [7]  02 0B 02 03 02 0B 00
 (1787061817.537222)  can0  201   [8]  0A E0 7B D4 27 10 00 64
 (1787061817.537465)  can0  230   [8]  F0 01 1A 00 61 00 00 00
 (1787061817.537633)  can0  231   [4]  01 00 FF FF
 (1787061817.544075)  can0  210   [7]  FF FF 30 A0 90 00 57
 (1787061817.544262)  can0  4B0   [8]  27 10 27 10 27 10 27 10
 (1787061817.547168)  can0  200   [7]  02 0B 02 03 02 0B 00
 (1787061817.547262)  can0  201   [8]  0A E0 7C 9C 27 10 00 64
 (1787061817.551238)  can0  7DF   [8]  02 01 0B 00 00 00 00 00
 (1787061817.551624)  can0  7E8   [8]  03 41 0B 1E 00 00 00 00
 (1787061817.555194)  can0  430   [7]  99 87 00 00 2A 3F 60
 (1787061817.557073)  can0  200   [7]  02 0B 02 03 02 0B 00
 (1787061817.557297)  can0  201   [8]  0A E0 7C 9C 27 10 00 64
 (1787061817.558038)  can0  210   [7]  FF FF 30 A0 90 00 58
 (1787061817.558265)  can0  4B0   [8]  27 10 27 10 27 10 27 10
 (1787061817.562040)  can0  230   [8]  F0 01 1A 00 61 00 00 00
 (1787061817.562186)  can0  231   [4]  01 00 FF FF
 (1787061817.567037)  can0  200   [7]  02 0B 02 03 02 0B 00
 (1787061817.567231)  can0  201   [8]  0A E7 7C 9C 27 10 00 64
 (1787061817.572070)  can0  210   [7]  FF FF 30 A0 90 00 59
 (1787061817.572284)  can0  4B0   [8]  27 10 27 10 27 10 27 10
 (1787061817.577013)  can0  200   [7]  02 0B 02 03 02 0B 00
 (1787061817.577227)  can0  201   [8]  0A E7 7D 8C 27 10 00 64
 (1787061817.586093)  can0  210   [7]  FF FF 30 A0 90 00 5A
 (1787061817.586290)  can0  4B0   [8]  27 10 27 10 27 10 27 10
 (1787061817.587045)  can0  200   [7]  02 0B 02 03 02 0B 00
 (1787061817.587251)  can0  201   [8]  0A E7 7D 8C 27 10 00 64
 (1787061817.587492)  can0  230   [8]  F0 01 1A 00 61 00 00 00
 (1787061817.587665)  can0  231   [4]  01 00 FF FF
 (1787061817.587893)  can0  420   [7]  83 FB 00 00 00 00 00
 (1787061817.597018)  can0  200   [7]  02 0B 02 03 02 0B 00
 (1787061817.597213)  can0  201   [8]  0A E7 7D 8C 27 10 00 64
 (1787061817.600118)  can0  210   [7]  FF FF 30 A0 90 00 5B
 (1787061817.600318)  can0  4B0   [8]  27 10 27 10 27 10 27 10
 (1787061817.600558)  can0  7DF   [8]  02 01 10 00 00 00 00 00
 (1787061817.600959)  can0  7E8   [8]  04 41 10 00 9F 00 00 00
 (1787061817.605191)  can0  430   [7]  98 87 00 00 2A 3F 60
 (1787061817.607102)  can0  200   [7]  02 0B 02 03 02 0B 00
 (1787061817.607305)  can0  201   [8]  0A E7 7D 8C 27 10 00 64
 (1787061817.612070)  can0  230   [8]  F0 01 1A 00 61 00 00 00
 (1787061817.612192)  can0  231   [4]  01 00 FF FF
 (1787061817.614080)  can0  210   [7]  FF FF 30 A0 90 00 5C
 (1787061817.614306)  can0  4B0   [8]  27 10 27 10 27 10 27 10
 (1787061817.617006)  can0  200   [7]  02 0B 02 03 02 0B 00
 (1787061817.617225)  can0  201   [8]  0A E7 7D 8C 27 10 00 64
 (1787061817.627021)  can0  200   [7]  02 0B 02 02 02 0B 00
 (1787061817.627226)  can0  201   [8]  0A E7 7D 00 27 10 00 64
 (1787061817.628074)  can0  210   [7]  FF FF 30 A0 90 00 5D
 (1787061817.628305)  can0  4B0   [8]  27 10 27 10 27 10 27 10
 (1787061817.637024)  can0  200   [7]  02 0B 02 02 02 0B 00
 (1787061817.637225)  can0  201   [8]  0A E7 7D 00 27 10 00 64
 (1787061817.637469)  can0  230   [8]  F0 01 1A 00 61 00 00 00
 (1787061817.637642)  can0  231   [4]  01 00 FF FF
 (1787061817.642142)  can0  210   [7]  FF FF 30 A0 90 00 5E
 (1787061817.642329)  can0  4B0   [8]  27 10 27 10 27 10 27 10
 (1787061817.647030)  can0  200   [7]  02 0B 02 03 02 0B 00
 (1787061817.647226)  can0  201   [8]  0A E7 7C C4 27 10 00 64
 (1787061817.651269)  can0  7DF   [8]  02 01 0B 00 00 00 00 00
 (1787061817.651633)  can0  7E8   [8]  03 41 0B 1E 00 00 00 00
 (1787061817.655173)  can0  430   [7]  96 87 00 00 2A 3F 60
 (1787061817.656102)  can0  210   [7]  FF FF 30 A0 90 00 5F
 (1787061817.656326)  can0  4B0   [8]  27 10 27 10 27 10 27 10
 (1787061817.657007)  can0  200   [7]  02 0B 02 03 02 0B 00
 (1787061817.657234)  can0  201   [8]  0A E4 7C C4 27 10 00 64
 (1787061817.662031)  can0  230   [8]  F0 01 1A 00 61 00 00 00
 (1787061817.662167)  can0  231   [4]  01 00 FF FF
 (1787061817.666999)  can0  200   [7]  02 0B 02 03 02 0B 00
 (1787061817.667213)  can0  201   [8]  0A E4 7C C4 27 10 00 64
 (1787061817.670176)  can0  210   [7]  FF FF 30 A0 90 00 60
 (1787061817.670340)  can0  4B0   [8]  27 10 27 10 27 10 27 10
 (1787061817.677011)  can0  200   [7]  02 0B 02 03 02 0B 00
 (1787061817.677215)  can0  201   [8]  0A E4 7C C4 27 10 00 64
 (1787061817.684156)  can0  210   [7]  FF FF 30 A0 90 00 61
 (1787061817.684348)  can0  4B0   [8]  27 10 27 10 27 10 27 10
 (1787061817.687039)  can0  200   [7]  02 0B 02 03 02 0B 00
 (1787061817.687226)  can0  201   [8]  0A E4 7C C4 27 10 00 64
 (1787061817.687463)  can0  230   [8]  F0 01 1A 00 61 00 00 00
 (1787061817.687635)  can0  231   [4]  01 00 FF FF
 (1787061817.687869)  can0  420   [7]  83 FB 00 00 00 00 00
 (1787061817.697001)  can0  200   [7]  02 0B 02 03 02 0B 00
 (1787061817.697204)  can0  201   [8]  0A E7 7D 3C 27 10 00 64
 (1787061817.698129)  can0  210   [7]  FF FF 30 A0 90 00 62
 (1787061817.698344)  can0  4B0   [8]  27 10 27 10 27 10 27 10
 (1787061817.700846)  can0  7DF   [8]  02 01 10 00 00 00 00 00
 (1787061817.701225)  can0  7E8   [8]  04 41 10 00 A4 00 00 00
 (1787061817.705178)  can0  430   [7]  96 86 00 00 2A 3F 60
 (1787061817.706998)  can0  200   [7]  02 0B 02 03 02 0B 00
 (1787061817.707208)  can0  201   [8]  0A E7 7D 3C 27 10 00 64
 (1787061817.712017)  can0  230   [8]  F0 01 1A 00 61 00 00 00
 (1787061817.712219)  can0  210   [7]  FF FF 30 A0 90 00 63
 (1787061817.712390)  can0  231   [4]  01 00 FF FF
 (1787061817.712625)  can0  4B0   [8]  27 10 27 10 27 10 27 10
 (1787061817.717005)  can0  200   [7]  02 0B 02 03 02 0B 00
 (1787061817.717210)  can0  201   [8]  0A E7 7D 3C 27 10 00 64
 (1787061817.726165)  can0  210   [7]  FF FF 30 A0 90 00 64
 (1787061817.726365)  can0  4B0   [8]  27 10 27 10 27 10 27 10
 (1787061817.727003)  can0  200   [7]  02 0B 02 03 02 0B 00
 (1787061817.727235)  can0  201   [8]  0A E7 7D 3C 27 10 00 64
 (1787061817.736993)  can0  200   [7]  02 0B 02 03 02 0B 00
 (1787061817.737201)  can0  201   [8]  0A EA 7D 3C 27 10 00 64
 (1787061817.737441)  can0  230   [8]  F0 01 1A 00 61 00 00 00
 (1787061817.737611)  can0  231   [4]  01 00 FF FF
 (1787061817.740185)  can0  210   [7]  FF FF 30 A0 90 00 65
 (1787061817.740374)  can0  4B0   [8]  27 10 27 10 27 10 27 10
 (1787061817.747012)  can0  200   [7]  02 0B 02 03 02 0B 00
 (1787061817.747213)  can0  201   [8]  0A EA 7D 3C 27 10 00 64
 (1787061817.751241)  can0  7DF   [8]  02 01 0B 00 00 00 00 00
 (1787061817.751620)  can0  7E8   [8]  03 41 0B 1E 00 00 00 00
 (1787061817.754174)  can0  210   [7]  FF FF 30 A0 90 00 66
 (1787061817.754381)  can0  4B0   [8]  27 10 27 10 27 10 27 10
 (1787061817.755144)  can0  430   [7]  99 86 00 00 2A 3F 60
 (1787061817.756978)  can0  200   [7]  02 0B 02 03 02 0B 00
 (1787061817.757206)  can0  201   [8]  0A EA 7D 3C 27 10 00 64
 (1787061817.762059)  can0  230   [8]  F0 01 1A 00 61 00 00 00
 (1787061817.762184)  can0  231   [4]  01 00 FF FF
 (1787061817.767030)  can0  200   [7]  02 0B 02 03 02 0B 00
 (1787061817.767215)  can0  201   [8]  0A EA 7D 3C 27 10 00 64
 (1787061817.768156)  can0  210   [7]  FF FF 30 A0 90 00 67
 (1787061817.768386)  can0  4B0   [8]  27 10 27 10 27 10 27 10
 (1787061817.776992)  can0  200   [7]  02 0B 02 02 02 0B 00
 (1787061817.777197)  can0  201   [8]  0A E6 7D 3C 27 10 00 64
 (1787061817.782285)  can0  210   [7]  FF FF 30 A0 90 00 68
 (1787061817.782399)  can0  4B0   [8]  27 10 27 10 27 10 27 10
 (1787061817.787000)  can0  200   [7]  02 0B 02 02 02 0B 00
 (1787061817.787208)  can0  201   [8]  0A E6 7D 3C 27 10 00 64
 (1787061817.787441)  can0  230   [8]  F0 01 1A 00 61 00 00 00
 (1787061817.787613)  can0  231   [4]  01 00 FF FF
 (1787061817.787843)  can0  420   [7]  83 FB 00 00 00 00 00
 (1787061817.796218)  can0  210   [7]  FF FF 30 A0 90 00 69
 (1787061817.796407)  can0  4B0   [8]  27 10 27 10 27 10 27 10
 (1787061817.796991)  can0  200   [7]  02 0B 02 03 02 0B 00
 (1787061817.797220)  can0  201   [8]  0A E6 7C B0 27 10 00 64
 (1787061817.801390)  can0  7DF   [8]  02 01 10 00 00 00 00 00
 (1787061817.801744)  can0  7E8   [8]  04 41 10 00 9D 00 00 00
 (1787061817.801979)  can0  7DF   [8]  02 01 42 00 00 00 00 00
 (1787061817.802449)  can0  7E8   [8]  04 41 42 35 46 00 00 00
 (1787061817.805174)  can0  430   [7]  99 86 00 00 2A 3F 60
 (1787061817.806981)  can0  200   [7]  02 0B 02 03 02 0B 00
 (1787061817.807201)  can0  201   [8]  0A E6 7C B0 27 10 00 64
 (1787061817.810188)  can0  210   [7]  FF FF 30 A0 90 00 6A
 (1787061817.810410)  can0  4B0   [8]  27 10 27 10 27 10 27 10
 (1787061817.812028)  can0  230   [8]  F0 01 1A 00 61 00 00 00
 (1787061817.812162)  can0  231   [4]  01 00 FF FF
 (1787061817.817011)  can0  200   [7]  02 0B 02 03 02 0B 00
 (1787061817.817207)  can0  201   [8]  0A E6 7C B0 27 10 00 64
 (1787061817.824221)  can0  210   [7]  FF FF 30 A0 90 00 6B
 (1787061817.824421)  can0  4B0   [8]  27 10 27 10 27 10 27 10
 (1787061817.827020)  can0  200   [7]  02 0B 02 03 02 0B 00
 (1787061817.827195)  can0  201   [8]  0A DB 7B D4 27 10 00 64
 (1787061817.837000)  can0  200   [7]  02 0B 02 03 02 0B 00
 (1787061817.837194)  can0  201   [8]  0A DB 7B D4 27 10 00 64
 (1787061817.837435)  can0  230   [8]  F0 01 1A 00 61 00 00 00
 (1787061817.837603)  can0  231   [4]  01 00 FF FF
 (1787061817.838199)  can0  210   [7]  FF FF 30 A0 90 00 6C
 (1787061817.838428)  can0  4B0   [8]  27 10 27 10 27 10 27 10
 (1787061817.847008)  can0  200   [7]  02 0B 02 03 02 0B 00
 (1787061817.847200)  can0  201   [8]  0A DB 7C 24 27 10 00 64
 (1787061817.850777)  can0  7DF   [8]  02 01 0B 00 00 00 00 00
 (1787061817.851338)  can0  7E8   [8]  03 41 0B 1E 00 00 00 00
 (1787061817.852229)  can0  210   [7]  FF FF 30 A0 90 00 6D
 (1787061817.852437)  can0  4B0   [8]  27 10 27 10 27 10 27 10
 (1787061817.855177)  can0  430   [7]  99 87 00 00 2A 3F 60
 (1787061817.856990)  can0  200   [7]  02 0B 02 03 02 0B 00
 (1787061817.857191)  can0  201   [8]  0A DB 7C 24 27 10 00 64
 (1787061817.861996)  can0  230   [8]  F0 01 1A 00 61 00 00 00
 (1787061817.862147)  can0  231   [4]  01 00 FF FF
 (1787061817.866302)  can0  210   [7]  FF FF 30 A0 90 00 6E
 (1787061817.866457)  can0  4B0   [8]  27 10 27 10 27 10 27 10
 (1787061817.867022)  can0  200   [7]  02 0B 02 03 02 0B 00
 (1787061817.867228)  can0  201   [8]  0A DF 7C 24 27 10 00 64
 (1787061817.876990)  can0  200   [7]  02 0B 02 03 02 0B 00
 (1787061817.877197)  can0  201   [8]  0A DF 7D 50 27 10 00 64
 (1787061817.880264)  can0  210   [7]  FF FF 30 A0 90 00 6F
 (1787061817.880465)  can0  4B0   [8]  27 10 27 10 27 10 27 10
 (1787061817.887025)  can0  200   [7]  02 0B 02 03 02 0B 00
 (1787061817.887222)  can0  201   [8]  0A DF 7D 50 27 10 00 64
 (1787061817.887463)  can0  230   [8]  F0 01 1A 00 61 00 00 00
 (1787061817.887634)  can0  231   [4]  01 00 FF FF
 (1787061817.887862)  can0  420   [7]  83 FB 00 00 00 00 00
 (1787061817.894282)  can0  210   [7]  FF FF 30 A0 90 00 70
 (1787061817.894476)  can0  4B0   [8]  27 10 27 10 27 10 27 10
 (1787061817.896992)  can0  200   [7]  02 0B 02 03 02 0B 00
 (1787061817.897204)  can0  201   [8]  0A DF 7D 50 27 10 00 64
 (1787061817.900706)  can0  7DF   [8]  02 01 10 00 00 00 00 00
 (1787061817.901134)  can0  7E8   [8]  04 41 10 00 A1 00 00 00
 (1787061817.905186)  can0  430   [7]  96 87 00 00 2A 3F 60
 (1787061817.906992)  can0  200   [7]  02 0B 02 03 02 0B 00
 (1787061817.907196)  can0  201   [8]  0A E4 7D 50 27 10 00 64
 (1787061817.908249)  can0  210   [7]  FF FF 30 A0 90 00 71
 (1787061817.908473)  can0  4B0   [8]  27 10 27 10 27 10 27 10
 (1787061817.912033)  can0  230   [8]  F0 01 1A 00 61 00 00 00
 (1787061817.912174)  can0  231   [4]  01 00 FF FF
 (1787061817.916975)  can0  200   [7]  02 0B 02 03 02 0B 00
 (1787061817.917188)  can0  201   [8]  0A E4 7D 50 27 10 00 64
 (1787061817.922301)  can0  210   [7]  FF FF 30 A0 90 00 72
 (1787061817.922548)  can0  4B0   [8]  27 10 27 10 27 10 27 10
 (1787061817.926996)  can0  200   [7]  02 0B 02 03 02 0B 00
 (1787061817.927197)  can0  201   [8]  0A E4 7D 64 27 10 00 64
 (1787061817.936329)  can0  210   [7]  FF FF 30 A0 90 00 73
 (1787061817.936500)  can0  4B0   [8]  27 10 27 10 27 10 27 10
 (1787061817.937000)  can0  200   [7]  02 0B 02 03 02 0B 00
 (1787061817.937237)  can0  201   [8]  0A E4 7D 64 27 10 00 64
 (1787061817.937501)  can0  230   [8]  F0 01 1A 00 61 00 00 00
 (1787061817.937633)  can0  231   [4]  01 00 FF FF
 (1787061817.947000)  can0  200   [7]  02 0B 02 03 02 0B 00
 (1787061817.947190)  can0  201   [8]  0A E4 7D 14 27 10 00 64
 (1787061817.950291)  can0  210   [7]  FF FF 30 A0 90 00 74
 (1787061817.950500)  can0  4B0   [8]  27 10 27 10 27 10 27 10
 (1787061817.951133)  can0  7DF   [8]  02 01 0B 00 00 00 00 00
 (1787061817.951691)  can0  7E8   [8]  03 41 0B 1E 00 00 00 00
 (1787061817.955181)  can0  430   [7]  96 87 00 00 2A 3F 60
 (1787061817.956956)  can0  200   [7]  02 0B 02 03 02 0B 00
 (1787061817.957181)  can0  201   [8]  0A E0 7D 14 27 10 00 64
 (1787061817.962017)  can0  230   [8]  F0 01 1A 00 61 00 00 00
