(1788189998.242396) can0 210#FFFF30A0900070
(1788189998.242593) can0 4B0#2710271027102710
(1788189998.243287) can0 200#020D0204020D00
(1788189998.243510) can0 201#0B107C9C27100064
(1788189998.244738) can0 7DF#0201100000000000
(1788189998.245118) can0 7E8#04411000AD000000
(1788189998.245339) can0 430#CA6B00002B0760
(1788189998.253286) can0 200#020D0204020D00
(1788189998.253489) can0 201#0B107C9C27100064
(1788189998.256415) can0 210#FFFF30A0900071
(1788189998.256616) can0 4B0#2710271027102710
(1788189998.256860) can0 7E0#0322E6F300000000
(1788189998.258312) can0 230#F0011A0061000000
(1788189998.258453) can0 231#0100FFFF
(1788189998.258701) can0 7E8#0462E6F3F0000000
(1788189998.263299) can0 200#020D0204020D00
(1788189998.263497) can0 201#0B107C9C27100064
(1788189998.270426) can0 210#FFFF30A0900072
(1788189998.270621) can0 4B0#2710271027102710
(1788189998.273279) can0 200#020D0204020D00
(1788189998.273486) can0 201#0B107C7427100064
(1788189998.283287) can0 200#020D0204020D00
(1788189998.283498) can0 201#0B107C7427100064
(1788189998.283739) can0 230#F0011A0061000000
(1788189998.283905) can0 231#0100FFFF
(1788189998.284398) can0 210#FFFF30A0900073
(1788189998.284612) can0 4B0#2710271027102710
(1788189998.288949) can0 7DF#0201050000000000
(1788189998.289467) can0 7E8#0341058400000000
(1788189998.293279) can0 200#020D0204020D00
(1788189998.293501) can0 201#0B047C1027100064
(1788189998.293749) can0 7DF#02010B0000000000
(1788189998.294143) can0 7E8#03410B2000000000
(1788189998.295117) can0 430#CC6B00002B0760
(1788189998.298407) can0 210#FFFF30A0900074
(1788189998.298622) can0 4B0#2710271027102710
(1788189998.303293) can0 200#020D0204020D00
(1788189998.303479) can0 201#0B047C1027100064
(1788189998.308290) can0 230#F0011A0061000000
(1788189998.308435) can0 231#0100FFFF
(1788189998.312423) can0 210#FFFF30A0900075
(1788189998.312630) can0 4B0#2710271027102710
(1788189998.313267) can0 200#020D0204020D00
(1788189998.313501) can0 201#0B047C1027100064
(1788189998.322235) can0 7DF#02010F0000000000
(1788189998.322613) can0 7E8#03410F5F00000000
(1788189998.323260) can0 200#020E0205020E00
(1788189998.323480) can0 201#0B047C1027100064
(1788189998.326433) can0 210#FFFF30A0900076
(1788189998.326644) can0 4B0#2710271027102710
(1788189998.333319) can0 200#020E0205020E00
(1788189998.333501) can0 201#0B0A7C1027100064
(1788189998.333799) can0 230#F0011A0061000000
(1788189998.333896) can0 231#0100FFFF
(1788189998.334230) can0 420#84000000000000
(1788189998.334362) can0 620#0D40121E10000120
(1788189998.334620) can0 630#84019F0000004F4F
(1788189998.340445) can0 210#FFFF30A0900077
(1788189998.340648) can0 4B0#2710271027102710
(1788189998.343272) can0 200#020D0204020D00
(1788189998.343472) can0 201#0B0A7D7827100064
(1788189998.343720) can0 7DF#0201100000000000
(1788189998.344109) can0 7E8#04411000AB000000
(1788189998.345108) can0 430#CB6B00002B0760
(1788189998.353264) can0 200#020D0204020D00
(1788189998.353469) can0 201#0B0A7D7827100064
(1788189998.354460) can0 210#FFFF30A0900078
(1788189998.354654) can0 4B0#2710271027102710
(1788189998.354895) can0 7DF#0201100000000000
(1788189998.355383) can0 7E8#04411000A8000000
(1788189998.358278) can0 230#F0011A0061000000
(1788189998.358429) can0 231#0100FFFF
(1788189998.363275) can0 200#020D0204020D00
(1788189998.363469) can0 201#0B0A7D7827100064
(1788189998.368459) can0 210#FFFF30A0900079
(1788189998.368657) can0 4B0#2710271027102710
(1788189998.373259) can0 200#020D0204020D00
(1788189998.373473) can0 201#0B107DF027100064
(1788189998.382452) can0 210#FFFF30A090007A
(1788189998.382665) can0 4B0#2710271027102710
(1788189998.383267) can0 200#020D0204020D00
(1788189998.383502) can0 201#0B107DF027100064
(1788189998.383741) can0 230#F0011A0061000000
(1788189998.383908) can0 231#0100FFFF
(1788189998.386432) can0 7DF#02010B0000000000
(1788189998.386817) can0 7E8#03410B2000000000
(1788189998.393261) can0 200#020D0204020D00
(1788189998.393467) can0 201#0B107D7827100064
(1788189998.393905) can0 7DF#02010B0000000000
(1788189998.394491) can0 7E8#03410B2000000000
(1788189998.395098) can0 430#CB6B00002B0760
(1788189998.396443) can0 210#FFFF30A090007B
(1788189998.396665) can0 4B0#2710271027102710
(1788189998.403248) can0 200#020D0204020D00
(1788189998.403460) can0 201#0B107D7827100064
(1788189998.408322) can0 230#F0011A0061000000
(1788189998.408440) can0 231#0100FFFF
(1788189998.410481) can0 210#FFFF30A090007C
(1788189998.410692) can0 4B0#2710271027102710
(1788189998.413270) can0 200#020D0204020D00
(1788189998.413467) can0 201#0B127D7827100064
(1788189998.418613) can0 7DF#0201060000000000
(1788189998.418993) can0 7E8#0341068000000000
(1788189998.423254) can0 200#020D0204020D00
(1788189998.423452) can0 201#0B127D2827100064
(1788189998.424511) can0 210#FFFF30A090007D
(1788189998.424690) can0 4B0#2710271027102710
(1788189998.433270) can0 200#020D0204020D00
(1788189998.433455) can0 201#0B127D2827100064
(1788189998.433718) can0 230#F0011A0061000000
(1788189998.433862) can0 231#0100FFFF
(1788189998.434110) can0 420#84000000000000
(1788189998.438483) can0 210#FFFF30A090007E
(1788189998.438684) can0 4B0#2710271027102710
(1788189998.443240) can0 200#020D0204020D00
(1788189998.443441) can0 201#0B127D2827100064
(1788189998.444155) can0 7DF#0201100000000000
(1788189998.444543) can0 7E8#04411000AF000000
(1788189998.445081) can0 430#CB6B00002B0760
(1788189998.450578) can0 7DF#0201070000000000
(1788189998.451106) can0 7E8#0341077F00000000
(1788189998.452490) can0 210#FFFF30A090007F
(1788189998.452694) can0 4B0#2710271027102710
(1788189998.453268) can0 200#020D0204020D00
(1788189998.453492) can0 201#0B127D2827100064
(1788189998.458267) can0 230#F0011A0061000000
(1788189998.458411) can0 231#0100FFFF
(1788189998.463221) can0 200#020D0204020D00
(1788189998.463438) can0 201#0B0E7D2827100064
(1788189998.466502) can0 210#FFFF30A0900080
(1788189998.466709) can0 4B0#2710271027102710
(1788189998.473260) can0 200#020D0204020D00
(1788189998.473442) can0 201#0B0E7CB027100064
(1788189998.480508) can0 210#FFFF30A0900081
(1788189998.480705) can0 4B0#2710271027102710
(1788189998.482743) can0 7DF#02010E0000000000
(1788189998.483123) can0 7E8#03410E9000000000
(1788189998.483335) can0 200#020D0204020D00
(1788189998.483576) can0 201#0B0E7CB027100064
(1788189998.483813) can0 230#F0011A0061000000
(1788189998.483978) can0 231#0100FFFF
(1788189998.493255) can0 200#020D0204020D00
(1788189998.493445) can0 201#0B0E7CB027100064
(1788189998.494462) can0 7DF#02010B0000000000
(1788189998.494684) can0 210#FFFF30A0900082
(1788189998.494914) can0 4B0#2710271027102710
(1788189998.495132) can0 430#CA6C00002B0760
(1788189998.495376) can0 7E8#03410B2000000000
(1788189998.503230) can0 200#020D0204020D00
(1788189998.503436) can0 201#0B147CB027100064
(1788189998.508237) can0 230#F0011A0061000000
(1788189998.508387) can0 231#0100FFFF
(1788189998.508607) can0 210#FFFF30A0900083
(1788189998.508840) can0 4B0#2710271027102710
(1788189998.513252) can0 200#020D0204020D00
(1788189998.513440) can0 201#0B147CB027100064
(1788189998.516259) can0 7DF#0201420000000000
(1788189998.516627) can0 7E8#04414235D3000000
(1788189998.522526) can0 210#FFFF30A0900084
(1788189998.522730) can0 4B0#2710271027102710
(1788189998.523236) can0 200#020D0204020D00
(1788189998.523459) can0 201#0B147D7827100064
(1788189998.533226) can0 200#020D0204020D00
(1788189998.533434) can0 201#0B147D7827100064
(1788189998.533673) can0 230#F0011A0061000000
(1788189998.533839) can0 231#0100FFFF
(1788189998.534067) can0 420#84000000000000
(1788189998.536536) can0 210#FFFF30A0900085
(1788189998.536734) can0 4B0#2710271027102710
(1788189998.543221) can0 200#020D0204020D00
(1788189998.543430) can0 201#0B167DA027100064
(1788189998.544521) can0 7DF#0201100000000000
(1788189998.544895) can0 7E8#04411000AD000000
(1788189998.545123) can0 430#CA6B00002B0760
(1788189998.548081) can0 7E0#0322000000000000
(1788189998.550524) can0 210#FFFF30A0900086
(1788189998.550737) can0 4B0#2710271027102710
(1788189998.553204) can0 200#020D0204020D00
(1788189998.553431) can0 201#0B167DA027100064
(1788189998.554331) can0 7E8#07620000BE3FB013
(1788189998.558271) can0 230#F0011A0061000000
(1788189998.558390) can0 231#0100FFFF
(1788189998.563217) can0 200#020D0204020D00
(1788189998.563429) can0 201#0B167DA027100064
(1788189998.564524) can0 210#FFFF30A0900087
(1788189998.564744) can0 4B0#2710271027102710
(1788189998.573259) can0 200#020D0204020D00
(1788189998.573431) can0 201#0B167D2827100064
(1788189998.578556) can0 210#FFFF30A0900088
(1788189998.578755) can0 4B0#2710271027102710
(1788189998.580036) can0 7E0#0322000200000000
(1788189998.583226) can0 200#020D0204020D00
(1788189998.583413) can0 201#0B187D2827100064
(1788189998.583660) can0 230#F0011A0061000000
(1788189998.583826) can0 231#0100FFFF
(1788189998.586363) can0 7E8#0562000200000000
(1788189998.592566) can0 210#FFFF30A0900089
(1788189998.592770) can0 4B0#2710271027102710
(1788189998.593206) can0 200#020D0204020D00
(1788189998.593439) can0 201#0B187D2827100064
(1788189998.594145) can0 7DF#02010B0000000000
(1788189998.594523) can0 7E8#03410B2000000000
(1788189998.595066) can0 430#CB6B00002B0760
(1788189998.603234) can0 200#020D0204020D00
(1788189998.603410) can0 201#0B187D2827100064
(1788189998.606588) can0 210#FFFF30A090008A
(1788189998.606765) can0 4B0#2710271027102710
(1788189998.608237) can0 230#F0011A0061000000
(1788189998.608366) can0 231#0100FFFF
(1788189998.611888) can0 7E0#0322000300000000
(1788189998.613190) can0 200#020D0204020D00
(1788189998.613414) can0 201#0B187D2827100064
(1788189998.618353) can0 7E8#0562000302000000
(1788189998.620576) can0 210#FFFF30A090008B
(1788189998.620797) can0 4B0#2710271027102710
(1788189998.623211) can0 200#020C0203020C00
(1788189998.623410) can0 201#0B187D2827100064
(1788189998.633422) can0 200#020C0203020C00
(1788189998.633568) can0 201#0B137D2827100064
(1788189998.633760) can0 230#F0011A0061000000
(1788189998.633809) can0 231#0100FFFF
(1788189998.634071) can0 420#84000000000000
(1788189998.634567) can0 210#FFFF30A090008C
(1788189998.634784) can0 4B0#2710271027102710
(1788189998.643232) can0 200#020D0204020D00
(1788189998.643408) can0 201#0B137C9C27100064
(1788189998.643829) can0 7DF#0201100000000000
(1788189998.644289) can0 7E8#04411000A6000000
(1788189998.644618) can0 7E0#0322000500000000
(1788189998.645065) can0 430#CB6B00002B0760
(1788189998.648584) can0 210#FFFF30A090008D
(1788189998.648780) can0 4B0#2710271027102710
(1788189998.650306) can0 7E8#0462000584000000
(1788189998.653189) can0 200#020D0204020D00
(1788189998.653401) can0 201#0B137C9C27100064
(1788189998.658217) can0 230#F0011A0061000000
(1788189998.658375) can0 231#0100FFFF
(1788189998.662597) can0 210#FFFF30A090008E
(1788189998.662791) can0 4B0#2710271027102710
(1788189998.663237) can0 200#020D0204020D00
(1788189998.663427) can0 201#0B137C9C27100064
(1788189998.673193) can0 200#020C0203020C00
(1788189998.673401) can0 201#0B127C8827100064
(1788189998.676736) can0 210#FFFF30A090008F
(1788189998.676932) can0 4B0#2710271027102710
(1788189998.679352) can0 7E0#0322000600000000
(1788189998.682314) can0 7E8#0462000681000000
(1788189998.683232) can0 200#020C0203020C00
(1788189998.683442) can0 201#0B127C8827100064
(1788189998.683688) can0 230#F0011A0061000000
(1788189998.683854) can0 231#0100FFFF
(1788189998.690597) can0 210#FFFF30A0900090
(1788189998.690795) can0 4B0#2710271027102710
(1788189998.693184) can0 200#020D0204020D00
(1788189998.693403) can0 201#0B127CEC27100064
(1788189998.695057) can0 430#CB6B00002B0760
(1788189998.695277) can0 7DF#02010B0000000000
(1788189998.695685) can0 7E8#03410B2000000000
(1788189998.703210) can0 200#020D0204020D00
(1788189998.703403) can0 201#0B127CEC27100064
(1788189998.704685) can0 210#FFFF30A0900091
(1788189998.704800) can0 4B0#2710271027102710
(1788189998.708235) can0 230#F0011A0061000000
(1788189998.708356) can0 231#0100FFFF
(1788189998.711502) can0 7E0#0322000700000000
(1788189998.713162) can0 200#020D0204020D00
(1788189998.713384) can0 201#0B167CEC27100064
(1788189998.714278) can0 7E8#046200077F000000
(1788189998.718607) can0 210#FFFF30A0900092
(1788189998.718831) can0 4B0#2710271027102710
(1788189998.723204) can0 200#020D0203020D00
(1788189998.723384) can0 201#0B167D5027100064
(1788189998.732655) can0 210#FFFF30A0900093
(1788189998.732841) can0 4B0#2710271027102710
(1788189998.733182) can0 200#020D0203020D00
(1788189998.733426) can0 201#0B167D5027100064
(1788189998.733658) can0 230#F0011A0061000000
(1788189998.733827) can0 231#0100FFFF
(1788189998.734063) can0 420#84000000000000
(1788189998.743209) can0 200#020C0203020C00
(1788189998.743384) can0 201#0B167D5027100064
(1788189998.744532) can0 7DF#0201100000000000
(1788189998.744878) can0 7E0#0322000B00000000
(1788189998.745107) can0 430#CB6B00002B0760
(1788189998.745351) can0 7E8#04411000AD000000
(1788189998.746597) can0 210#FFFF30A0900094
(1788189998.746813) can0 4B0#2710271027102710
(1788189998.753169) can0 200#020C0203020C00
(1788189998.753387) can0 201#0B147D5027100064
(1788189998.758188) can0 230#F0011A0061000000
(1788189998.758340) can0 231#0100FFFF
(1788189998.760636) can0 210#FFFF30A0900095
(1788189998.760831) can0 4B0#2710271027102710
(1788189998.763251) can0 200#020C0203020C00
(1788189998.763408) can0 201#0B147D5027100064
(1788189998.773182) can0 200#020D0204020D00
(1788189998.773375) can0 201#0B147CD827100064
(1788189998.774650) can0 210#FFFF30A0900096
(1788189998.774851) can0 4B0#2710271027102710
(1788189998.776630) can0 7E0#0322000C00000000
(1788189998.778307) can0 7E8#0562000C0B140000
(1788189998.783162) can0 200#020D0204020D00
(1788189998.783371) can0 201#0B147CD827100064
(1788189998.783615) can0 230#F0011A0061000000
(1788189998.783779) can0 231#0100FFFF
(1788189998.788641) can0 210#FFFF30A0900097
(1788189998.788843) can0 4B0#2710271027102710
(1788189998.793169) can0 200#020D0204020D00
(1788189998.793369) can0 201#0B147C6027100064
(1788189998.793922) can0 7DF#02010B0000000000
(1788189998.794360) can0 7E8#03410B2000000000
(1788189998.795048) can0 430#CA6C00002B0760
(1788189998.802651) can0 210#FFFF30A0900098
(1788189998.802852) can0 4B0#2710271027102710
(1788189998.803151) can0 200#020D0204020D00
(1788189998.803385) can0 201#0B0E7C6027100064
(1788189998.808196) can0 230#F0011A0061000000
(1788189998.808355) can0 231#0100FFFF
(1788189998.810408) can0 7E0#0322000D00000000
(1788189998.813173) can0 200#020D0204020D00
(1788189998.813380) can0 201#0B0E7C6027100064
(1788189998.816668) can0 210#FFFF30A0900099
(1788189998.816855) can0 4B0#2710271027102710
(1788189998.818277) can0 7E8#0462000D00000000
(1788189998.823254) can0 200#020D0204020D00
(1788189998.823405) can0 201#0B0E7C8827100064
(1788189998.830660) can0 210#FFFF30A090009A
(1788189998.830867) can0 4B0#2710271027102710
(1788189998.833160) can0 200#020D0204020D00
(1788189998.833360) can0 201#0B0E7C8827100064
(1788189998.833605) can0 230#F0011A0061000000
(1788189998.833773) can0 231#0100FFFF
(1788189998.833998) can0 420#84000000000000
(1788189998.842756) can0 7E0#0322000E00000000
(1788189998.843127) can0 200#020D0203020D00
(1788189998.843357) can0 201#0B147D7827100064
(1788189998.844289) can0 7DF#0201100000000000
(1788189998.844616) can0 7DF#0201420000000000
(1788189998.844845) can0 210#FFFF30A090009B
(1788189998.845065) can0 430#CB6B00002B0760
(1788189998.845296) can0 4B0#2710271027102710
(1788189998.850257) can0 7E8#0462000E90000000
(1788189998.853189) can0 200#020D0203020D00
(1788189998.853367) can0 201#0B147D7827100064
(1788189998.858265) can0 230#F0011A0061000000
(1788189998.858398) can0 231#0100FFFF
(1788189998.858653) can0 210#FFFF30A090009C
(1788189998.858881) can0 4B0#2710271027102710
(1788189998.863146) can0 200#020D0203020D00
(1788189998.863348) can0 201#0B147D7827100064
(1788189998.872698) can0 210#FFFF30A090009D
(1788189998.872887) can0 4B0#2710271027102710
(1788189998.873155) can0 200#020D0204020D00
(1788189998.873380) can0 201#0B147D7827100064
(1788189998.875420) can0 7E0#0322000F00000000
(1788189998.882281) can0 7E8#0462000F5F000000
(1788189998.883146) can0 200#020D0204020D00
(1788189998.883363) can0 201#0B197D7827100064
(1788189998.883592) can0 230#F0011A0061000000
(1788189998.883760) can0 231#0100FFFF
(1788189998.886703) can0 210#FFFF30A090009E
(1788189998.886887) can0 4B0#2710271027102710
(1788189998.893179) can0 200#020C0203020C00
(1788189998.893357) can0 201#0B197D6427100064
(1788189998.893778) can0 7DF#02010B0000000000
(1788189998.894249) can0 7E8#03410B1F00000000
(1788189998.895042) can0 430#CB6B00002B0760
(1788189998.900701) can0 210#FFFF30A090009F
(1788189998.900892) can0 4B0#2710271027102710
(1788189998.903134) can0 200#020C0203020C00
(1788189998.903338) can0 201#0B197D6427100064
(1788189998.907609) can0 7E0#0322001000000000
(1788189998.908128) can0 230#F0011A0061000000
(1788189998.908294) can0 231#0100FFFF
(1788189998.913158) can0 200#020C0203020C00
(1788189998.913348) can0 201#0B197D6427100064
(1788189998.914277) can0 7E8#0562001000AF0000
(1788189998.914748) can0 210#FFFF30A09000A0
(1788189998.914936) can0 4B0#2710271027102710
(1788189998.923137) can0 200#020C0203020C00
(1788189998.923355) can0 201#0B107D6427100064
(1788189998.928705) can0 210#FFFF30A09000A1
(1788189998.928908) can0 4B0#2710271027102710
(1788189998.933154) can0 200#020C0203020C00
(1788189998.933361) can0 201#0B107D6427100064
(1788189998.933583) can0 230#F0011A0061000000
(1788189998.933754) can0 231#0100FFFF
(1788189998.933981) can0 420#84000000000000
(1788189998.939817) can0 7E0#0322001100000000
(1788189998.942696) can0 210#FFFF30A09000A2
(1788189998.942911) can0 4B0#2710271027102710
(1788189998.943136) can0 200#020D0204020D00
(1788189998.943368) can0 201#0B107C4C27100064
(1788189998.944040) can0 7DF#0201100000000000
(1788189998.945026) can0 430#CB6B00002B0760
(1788189998.946240) can0 7E8#046200111E000000
(1788189998.953141) can0 200#020D0204020D00
(1788189998.953345) can0 201#0B107C4C27100064
(1788189998.956712) can0 210#FFFF30A09000A3
(1788189998.956915) can0 4B0#2710271027102710
(1788189998.958146) can0 230#F0011A0061000000
(1788189998.958311) can0 231#0100FFFF
(1788189998.963137) can0 200#020D0204020D00
(1788189998.963349) can0 201#0AFF7C4C27100064
(1788189998.970726) can0 210#FFFF30A09000A4
(1788189998.970942) can0 4B0#2710271027102710
(1788189998.972843) can0 7E0#0322001300000000
(1788189998.973166) can0 200#020E0205020E00
(1788189998.973403) can0 201#0AFF7AF827100064
(1788189998.978272) can0 7E8#0462001301000000
(1788189998.983124) can0 200#020E0205020E00
(1788189998.983354) can0 201#0AFF7AF827100064
(1788189998.983582) can0 230#F0011A0061000000
(1788189998.983746) can0 231#0100FFFF
(1788189998.984723) can0 210#FFFF30A09000A5
(1788189998.984943) can0 4B0#2710271027102710
(1788189998.993131) can0 200#020E0205020E00
(1788189998.993328) can0 201#0AFF7BAC27100064
(1788189998.994478) can0 7DF#02010B0000000000
(1788189998.994854) can0 7E8#03410B2000000000
(1788189998.995078) can0 430#CB6B00002B0700
(1788189998.998725) can0 210#FFFF30A09000A6
(1788189998.998932) can0 4B0#2710271027102710
(1788189999.003118) can0 200#020E0205020E00
(1788189999.003323) can0 201#0AFF7BAC27100064
(1788189999.004801) can0 7E0#0322001C00000000
(1788189999.008175) can0 230#F0011A0061000000
(1788189999.008320) can0 231#0100FFFF
(1788189999.010325) can0 7E8#0462001C0A000000
(1788189999.012871) can0 210#FFFF30A09000A7
(1788189999.013084) can0 4B0#2710271027102710
(1788189999.013251) can0 200#020E0205020E00
(1788189999.013432) can0 201#0B017BAC27100064
(1788189999.023145) can0 200#020E0205020E00
(1788189999.023331) can0 201#0B017D2827100064
(1788189999.026751) can0 210#FFFF30A09000A8
(1788189999.026957) can0 4B0#2710271027102710
(1788189999.033124) can0 200#020E0205020E00
(1788189999.033329) can0 201#0B017D2827100064
(1788189999.033565) can0 230#F0011A0061000000
(1788189999.033735) can0 231#0100FFFF
(1788189999.033963) can0 420#84000000000000
(1788189999.036838) can0 7E0#0322001F00000000
(1788189999.040833) can0 210#FFFF30A09000A9
(1788189999.040966) can0 4B0#2710271027102710
(1788189999.042277) can0 7E8#0562001F022B0000
(1788189999.043248) can0 200#020E0205020E00
(1788189999.043388) can0 201#0B017D2827100064
(1788189999.044227) can0 7DF#0201100000000000
(1788189999.044605) can0 7E8#04411000B2000000
(1788189999.045030) can0 430#CA6C00002B0700
(1788189999.053124) can0 200#020E0205020E00
(1788189999.053317) can0 201#0B0B7D2827100064
(1788189999.054762) can0 210#FFFF30A09000AA
(1788189999.054963) can0 4B0#2710271027102710
(1788189999.058122) can0 230#F0011A0061000000
(1788189999.058272) can0 231#0100FFFF
(1788189999.063108) can0 200#020E0205020E00
(1788189999.063309) can0 201#0B0B7D2827100064
(1788189999.068757) can0 210#FFFF30A09000AB
(1788189999.068973) can0 4B0#2710271027102710
(1788189999.069218) can0 7E0#0322002000000000
(1788189999.073191) can0 200#020D0204020D00
(1788189999.073302) can0 201#0B0B7DC827100064
(1788189999.074238) can0 7E8#0762002080158011
(1788189999.082772) can0 210#FFFF30A09000AC
(1788189999.082976) can0 4B0#2710271027102710
(1788189999.083198) can0 200#020D0204020D00
(1788189999.083438) can0 201#0B0B7DC827100064
(1788189999.083682) can0 230#F0011A0061000000
(1788189999.083845) can0 231#0100FFFF
(1788189999.093155) can0 200#020D0204020D00
(1788189999.093311) can0 201#0B157E9027100064
(1788189999.093710) can0 7DF#02010B0000000000
(1788189999.094171) can0 7E8#03410B2000000000
(1788189999.095009) can0 430#CA6B00002B0700
(1788189999.096750) can0 210#FFFF30A09000AD
(1788189999.096973) can0 4B0#2710271027102710
(1788189999.100481) can0 7E0#0322002100000000
(1788189999.103100) can0 200#020D0204020D00
(1788189999.103298) can0 201#0B157E9027100064
(1788189999.106264) can0 7E8#0562002100000000
(1788189999.108121) can0 230#F0011A0061000000
(1788189999.108262) can0 231#0100FFFF
(1788189999.110782) can0 210#FFFF30A09000AE
(1788189999.111003) can0 4B0#2710271027102710
(1788189999.113093) can0 200#020D0204020D00
(1788189999.113302) can0 201#0B157E9027100064
(1788189999.123098) can0 200#020D0204020D00
(1788189999.123309) can0 201#0B157DC827100064
(1788189999.124790) can0 210#FFFF30A09000AF
(1788189999.124990) can0 4B0#2710271027102710
(1788189999.132753) can0 7E0#0322002C00000000
(1788189999.133112) can0 200#020D0204020D00
(1788189999.133345) can0 201#0B127DC827100064
(1788189999.133595) can0 230#F0011A0061000000
(1788189999.133779) can0 231#0100FFFF
(1788189999.134008) can0 420#84000000000000
(1788189999.138288) can0 7E8#0462002C00000000
(1788189999.138822) can0 210#FFFF30A09000B0
(1788189999.139005) can0 4B0#2710271027102710
(1788189999.143091) can0 200#020D0204020D00
(1788189999.143289) can0 201#0B127CC427100064
(1788189999.143923) can0 7DF#0201100000000000
(1788189999.144377) can0 7E8#04411000AB000000
(1788189999.145008) can0 430#CB6B00002B0700
(1788189999.152812) can0 210#FFFF30A09000B1
(1788189999.153007) can0 4B0#2710271027102710
(1788189999.153227) can0 200#020D0204020D00
(1788189999.153462) can0 201#0B127CC427100064
(1788189999.158111) can0 230#F0011A0061000000
(1788189999.158256) can0 231#0100FFFF
(1788189999.163087) can0 200#020D0204020D00
(1788189999.163302) can0 201#0B127CC427100064
(1788189999.164807) can0 7E0#0322002E00000000
(1788189999.166818) can0 210#FFFF30A09000B2
(1788189999.167024) can0 4B0#2710271027102710
(1788189999.170240) can0 7E8#0462002E1C000000
(1788189999.173094) can0 200#020D0204020D00
(1788189999.173288) can0 201#0B127CC427100064
(1788189999.180815) can0 210#FFFF30A09000B3
(1788189999.181019) can0 4B0#2710271027102710
(1788189999.183071) can0 200#020D0204020D00
(1788189999.183279) can0 201#0B137CC427100064
(1788189999.183526) can0 230#F0011A0061000000
(1788189999.183691) can0 231#0100FFFF
(1788189999.193076) can0 200#020D0204020D00
(1788189999.193282) can0 201#0B137D1427100064
(1788189999.194626) can0 7DF#02010B0000000000
(1788189999.194846) can0 210#FFFF30A09000B4
(1788189999.195068) can0 430#CB6B00002B0700
(1788189999.195301) can0 4B0#2710271027102710
(1788189999.195545) can0 7E8#03410B1F00000000
(1788189999.197647) can0 7E0#0322003000000000
(1788189999.202231) can0 7E8#04620030FF000000
(1788189999.203068) can0 200#020D0204020D00
(1788189999.203276) can0 201#0B137D1427100064
(1788189999.208107) can0 230#F0011A0061000000
(1788189999.208231) can0 231#0100FFFF
(1788189999.208806) can0 210#FFFF30A09000B5
(1788189999.209034) can0 4B0#2710271027102710
(1788189999.213079) can0 200#020D0204020D00
(1788189999.213277) can0 201#0B137D1427100064
(1788189999.222842) can0 210#FFFF30A09000B6
(1788189999.223042) can0 4B0#2710271027102710
(1788189999.223257) can0 200#020D0204020D00
(1788189999.223490) can0 201#0B0E7CB027100064
(1788189999.230701) can0 7E0#0322003C00000000
(1788189999.233103) can0 200#020D0204020D00
(1788189999.233302) can0 201#0B0E7CB027100064
(1788189999.233535) can0 230#F0011A0061000000
(1788189999.233723) can0 231#0100FFFF
(1788189999.233927) can0 420#84000000000000
(1788189999.234692) can0 7E8#0562003C14D50000
(1788189999.236837) can0 210#FFFF30A09000B7
(1788189999.237048) can0 4B0#2710271027102710
(1788189999.243068) can0 200#020D0204020D00
(1788189999.243264) can0 201#0B0E7C9C27100064
(1788189999.244086) can0 7DF#0201100000000000
(1788189999.244460) can0 7E8#04411000AD000000
(1788189999.244983) can0 430#CB6B00002B0700
(1788189999.250859) can0 210#FFFF30A09000B8
(1788189999.251069) can0 4B0#2710271027102710
(1788189999.253045) can0 200#020D0204020D00
(1788189999.253264) can0 201#0B0E7C9C27100064
(1788189999.258125) can0 230#F0011A0061000000
(1788189999.258233) can0 231#0100FFFF
(1788189999.263090) can0 200#020D0204020D00
(1788189999.263259) can0 201#0B0D7C9C27100064
(1788189999.264871) can0 210#FFFF30A09000B9
(1788189999.265064) can0 4B0#2710271027102710
(1788189999.266124) can0 7E0#0322004000000000
(1788189999.273073) can0 200#020D0204020D00
(1788189999.273296) can0 201#0B0D7CEC27100064
(1788189999.274183) can0 7E8#0762004068000000
(1788189999.278870) can0 210#FFFF30A09000BA
(1788189999.279079) can0 4B0#2710271027102710
(1788189999.283050) can0 200#020D0204020D00
(1788189999.283255) can0 201#0B0D7CEC27100064
(1788189999.283501) can0 230#F0011A0061000000
(1788189999.283669) can0 231#0100FFFF
(1788189999.292897) can0 210#FFFF30A09000BB
(1788189999.293065) can0 200#020D0204020D00
(1788189999.293312) can0 201#0B0D7CEC27100064
(1788189999.293544) can0 4B0#2710271027102710
(1788189999.294973) can0 7DF#02010B0000000000
(1788189999.295145) can0 430#CA6C00002B0700
(1788189999.295395) can0 7E8#03410B2000000000
(1788189999.298229) can0 7E0#0322004200000000
(1788189999.303067) can0 200#020D0204020D00
(1788189999.303256) can0 201#0B077CEC27100064
(1788189999.306200) can0 7E8#0562004235CA0000
(1788189999.306855) can0 210#FFFF30A09000BC
(1788189999.307077) can0 4B0#2710271027102710
(1788189999.308061) can0 230#F0011A0061000000
(1788189999.308227) can0 231#0100FFFF
(1788189999.313047) can0 200#020D0204020D00
(1788189999.313249) can0 201#0B077CEC27100064
(1788189999.320886) can0 210#FFFF30A09000BD
(1788189999.321098) can0 4B0#2710271027102710
(1788189999.323058) can0 200#020D0204020D00
(1788189999.323255) can0 201#0B077C8827100064
(1788189999.330452) can0 7E0#0322004300000000
(1788189999.333049) can0 200#020D0204020D00
(1788189999.333253) can0 201#0B077C8827100064
(1788189999.333499) can0 230#F0011A0061000000
(1788189999.333664) can0 231#0100FFFF
(1788189999.333893) can0 420#84000000000000
(1788189999.334133) can0 620#0D40121E10000120
(1788189999.334383) can0 630#84019F0000004F4F
(1788189999.334858) can0 210#FFFF30A09000BE
(1788189999.335092) can0 4B0#2710271027102710
(1788189999.338211) can0 7E8#0562004300300000
(1788189999.343046) can0 200#020D0204020D00
(1788189999.343251) can0 201#0B077D2827100064
(1788189999.344318) can0 7DF#0201100000000000
(1788189999.344706) can0 7E8#04411000AF000000
(1788189999.344964) can0 430#CA6C00002B0700
(1788189999.348884) can0 210#FFFF30A09000BF
(1788189999.349095) can0 4B0#2710271027102710
(1788189999.353087) can0 200#020D0204020D00
(1788189999.353266) can0 201#0B0F7D2827100064
(1788189999.358084) can0 230#F0011A0061000000
(1788189999.358211) can0 231#0100FFFF
(1788189999.362379) can0 7E0#0322020000000000
(1788189999.362885) can0 210#FFFF30A09000C0
(1788189999.363094) can0 200#020D0204020D00
(1788189999.363331) can0 201#0B0F7D2827100064
(1788189999.363580) can0 4B0#2710271027102710
(1788189999.370223) can0 7E8#0462020000000000
(1788189999.373087) can0 200#020D0204020D00
(1788189999.373256) can0 201#0B0F7DA027100064
(1788189999.376908) can0 210#FFFF30A09000C1
(1788189999.377111) can0 4B0#2710271027102710
(1788189999.383044) can0 200#020D0204020D00
(1788189999.383237) can0 201#0B0F7DA027100064
(1788189999.383487) can0 230#F0011A0061000000
(1788189999.383648) can0 231#0100FFFF
(1788189999.390917) can0 210#FFFF30A09000C2
(1788189999.391123) can0 4B0#2710271027102710
(1788189999.393033) can0 200#020D0204020D00
(1788189999.393243) can0 201#0B147D6427100064
(1788189999.394600) can0 7E0#0322020200000000
(1788189999.394976) can0 430#C86E00002B0700
(1788189999.395200) can0 7DF#02010B0000000000
(1788189999.402192) can0 7E8#0462020200000000
(1788189999.403018) can0 200#020D0204020D00
(1788189999.403226) can0 201#0B147D6427100064
(1788189999.404931) can0 210#FFFF30A09000C3
(1788189999.405116) can0 4B0#2710271027102710
(1788189999.408026) can0 230#F0011A0061000000
(1788189999.408181) can0 231#0100FFFF
(1788189999.413023) can0 200#020D0204020D00
(1788189999.413228) can0 201#0B147D6427100064
(1788189999.418953) can0 210#FFFF30A09000C4
(1788189999.419141) can0 4B0#2710271027102710
(1788189999.423026) can0 200#020D0204020D00
(1788189999.423228) can0 201#0B147D6427100064
(1788189999.427797) can0 7E0#0322090000000000
(1788189999.432942) can0 210#FFFF30A09000C5
(1788189999.433117) can0 200#020D0204020D00
(1788189999.433352) can0 201#0B0E7D6427100064
(1788189999.433598) can0 230#F0011A0061000000
(1788189999.433768) can0 231#0100FFFF
(1788189999.433996) can0 420#84000000000000
(1788189999.434227) can0 4B0#2710271027102710
(1788189999.434474) can0 7E8#05620900055F0000
(1788189999.443024) can0 200#020D0204020D00
(1788189999.443223) can0 201#0B0E7C8827100064
(1788189999.444085) can0 7DF#0201100000000000
(1788189999.444448) can0 7E8#04411000AD000000
(1788189999.444971) can0 430#C76D00002B0700
(1788189999.446938) can0 210#FFFF30A09000C6
(1788189999.447156) can0 4B0#2710271027102710
(1788189999.453020) can0 200#020D0204020D00
(1788189999.453243) can0 201#0B0E7C8827100064
(1788189999.458045) can0 230#F0011A0061000000
(1788189999.458187) can0 231#0100FFFF
(1788189999.460954) can0 210#FFFF30A09000C7
(1788189999.461148) can0 4B0#2710271027102710
(1788189999.462996) can0 7E0#0322096800000000
(1788189999.463206) can0 200#020D0204020D00
(1788189999.463439) can0 201#0B0E7C8827100064
(1788189999.466175) can0 7E8#0562096800000000
(1788189999.473029) can0 200#020D0204020D00
(1788189999.473240) can0 201#0B067C8827100064
(1788189999.475033) can0 210#FFFF30A09000C8
(1788189999.475162) can0 4B0#2710271027102710
(1788189999.483010) can0 200#020D0204020D00
(1788189999.483216) can0 201#0B067C8827100064
(1788189999.483478) can0 230#F0011A0061000000
(1788189999.483622) can0 231#0100FFFF
(1788189999.488968) can0 210#FFFF30A09000C9
(1788189999.489165) can0 4B0#2710271027102710
(1788189999.493019) can0 200#020D0204020D00
(1788189999.493219) can0 201#0B067C6027100064
(1788189999.494445) can0 7DF#02010B0000000000
(1788189999.494834) can0 7E8#03410B1F00000000
(1788189999.495039) can0 430#C47100002B0700
(1788189999.495279) can0 7E0#0322096E00000000
(1788189999.498151) can0 7E8#0562096E0AF00000
(1788189999.502960) can0 210#FFFF30A09000CA
(1788189999.503163) can0 200#020D0204020D00
(1788189999.503394) can0 201#0B067C6027100064
(1788189999.503657) can0 4B0#2710271027102710
(1788189999.508032) can0 230#F0011A0061000000
(1788189999.508166) can0 231#0100FFFF
(1788189999.513004) can0 200#020D0204020D00
(1788189999.513224) can0 201#0B067C6027100064
(1788189999.516975) can0 210#FFFF30A09000CB
(1788189999.517174) can0 4B0#2710271027102710
(1788189999.523029) can0 200#020D0204020D00
(1788189999.523209) can0 201#0B0E7D0027100064
(1788189999.527763) can0 7E0#0322097C00000000
(1788189999.530115) can0 7E8#0562097C6E350000
(1788189999.530958) can0 210#FFFF30A09000CC
(1788189999.531180) can0 4B0#2710271027102710
(1788189999.532996) can0 200#020D0204020D00
(1788189999.533229) can0 201#0B0E7D0027100064
(1788189999.533533) can0 230#F0011A0061000000
(1788189999.533617) can0 231#0100FFFF
(1788189999.533865) can0 420#84000000000000
(1788189999.542995) can0 200#020D0204020D00
(1788189999.543202) can0 201#0B0E7DA027100064
(1788189999.543854) can0 7DF#0201100000000000
(1788189999.544287) can0 7E8#04411000A6000000
(1788189999.544979) can0 430#C37100002B0700
(1788189999.545163) can0 210#FFFF30A09000CD
(1788189999.545420) can0 4B0#2710271027102710
(1788189999.553004) can0 200#020D0204020D00
(1788189999.553204) can0 201#0B0E7DA027100064
(1788189999.558034) can0 230#F0011A0061000000
(1788189999.558165) can0 231#0100FFFF
(1788189999.558983) can0 210#FFFF30A09000CE
(1788189999.559191) can0 4B0#2710271027102710
(1788189999.560130) can0 7E0#0322098E00000000
(1788189999.562127) can0 7E8#0562098E00000000
(1788189999.562992) can0 200#020D0204020D00
(1788189999.563244) can0 201#0B127DA027100064
(1788189999.572996) can0 200#020D0204020D00
(1788189999.573201) can0 201#0B127D5027100064
(1788189999.573422) can0 210#FFFF30A09000CF
(1788189999.573651) can0 4B0#2710271027102710
(1788189999.583008) can0 200#020D0204020D00
(1788189999.583201) can0 201#0B127D5027100064
(1788189999.583441) can0 230#F0011A0061000000
(1788189999.583607) can0 231#0100FFFF
(1788189999.586996) can0 210#FFFF30A09000D0
(1788189999.587203) can0 4B0#2710271027102710
(1788189999.592082) can0 7E0#0322110100000000
(1788189999.592975) can0 200#020D0204020D00
(1788189999.593198) can0 201#0B127D5027100064
(1788189999.594134) can0 7E8#0462110100000000
(1788189999.594376) can0 7DF#02010B0000000000
(1788189999.594907) can0 7E8#03410B2000000000
(1788189999.595126) can0 430#C37300002B0700
(1788189999.601030) can0 210#FFFF30A09000D1
(1788189999.601222) can0 4B0#2710271027102710
(1788189999.602974) can0 200#020D0204020D00
(1788189999.603199) can0 201#0B127D5027100064
(1788189999.608000) can0 230#F0011A0061000000
(1788189999.608159) can0 231#0100FFFF
(1788189999.612992) can0 200#020D0204020D00
(1788189999.613195) can0 201#0B127D5027100064
(1788189999.615005) can0 210#FFFF30A09000D2
(1788189999.615211) can0 4B0#2710271027102710
(1788189999.623012) can0 200#020D0204020D00
(1788189999.623197) can0 201#0B127D0027100064
(1788189999.629059) can0 210#FFFF30A09000D3
(1788189999.629246) can0 4B0#2710271027102710
(1788189999.630371) can0 7E0#0322110300000000
(1788189999.632981) can0 200#020D0204020D00
(1788189999.633188) can0 201#0B127D0027100064
(1788189999.633436) can0 230#F0011A0061000000
(1788189999.633598) can0 231#0100FFFF
(1788189999.633824) can0 420#84000000000000
(1788189999.634118) can0 7E8#0462110300000000
(1788189999.642978) can0 200#020D0204020D00
(1788189999.643183) can0 201#0B0E7CB027100064
(1788189999.643405) can0 210#FFFF30A09000D4
(1788189999.643633) can0 4B0#2710271027102710
(1788189999.644944) can0 7DF#0201100000000000
(1788189999.645165) can0 430#C37100002B0700
(1788189999.645408) can0 7E8#04411000AD000000
(1788189999.652975) can0 200#020D0204020D00
(1788189999.653178) can0 201#0B0E7CB027100064
(1788189999.657048) can0 210#FFFF30A09000D5
(1788189999.657240) can0 4B0#2710271027102710
(1788189999.658128) can0 230#F0011A0061000000
(1788189999.658260) can0 231#0100FFFF
(1788189999.662249) can0 7E0#0322110400000000
(1788189999.662954) can0 200#020D0204020D00
(1788189999.663168) can0 201#0B0E7CB027100064
(1788189999.666136) can0 7E8#0462110400000000
(1788189999.671050) can0 210#FFFF30A09000D6
(1788189999.671255) can0 4B0#2710271027102710
(1788189999.672984) can0 200#020D0204020D00
(1788189999.673191) can0 201#0B0E7CB027100064
(1788189999.682990) can0 200#020D0204020D00
(1788189999.683170) can0 201#0B0E7CB027100064
(1788189999.683417) can0 230#F0011A0061000000
(1788189999.683584) can0 231#0100FFFF
(1788189999.685053) can0 210#FFFF30A09000D7
(1788189999.685252) can0 4B0#2710271027102710
(1788189999.693109) can0 200#020D0204020D00
(1788189999.693288) can0 201#0B137D6427100064
(1788189999.693929) can0 7DF#02010B0000000000
(1788189999.694308) can0 7E8#03410B1F00000000
(1788189999.694941) can0 430#C37200002B0700
(1788189999.695638) can0 7E0#0322114A00000000
(1788189999.698096) can0 7E8#0562114A32800000
(1788189999.699033) can0 210#FFFF30A09000D8
(1788189999.699248) can0 4B0#2710271027102710
(1788189999.702962) can0 200#020D0204020D00
(1788189999.703163) can0 201#0B137D6427100064
(1788189999.707977) can0 230#F0011A0061000000
(1788189999.708121) can0 231#0100FFFF
(1788189999.712976) can0 200#020D0204020D00
(1788189999.713160) can0 201#0B137D6427100064
(1788189999.713388) can0 210#FFFF30A09000D9
(1788189999.713618) can0 4B0#2710271027102710
(1788189999.722968) can0 200#020D0204020D00
(1788189999.723160) can0 201#0B137D6427100064
(1788189999.727078) can0 210#FFFF30A09000DA
(1788189999.727289) can0 4B0#2710271027102710
(1788189999.728297) can0 7E0#0322114D00000000
(1788189999.730069) can0 7E8#0562114D21800000
(1788189999.732954) can0 200#020D0204020D00
(1788189999.733158) can0 201#0B187D6427100064
(1788189999.733397) can0 230#F0011A0061000000
(1788189999.733566) can0 231#0100FFFF
(1788189999.733796) can0 420#84000000000000
(1788189999.741079) can0 210#FFFF30A09000DB
(1788189999.741285) can0 4B0#2710271027102710
(1788189999.742970) can0 200#020D0203020D00
(1788189999.743163) can0 201#0B187D6427100064
(1788189999.744717) can0 7DF#0201100000000000
(1788189999.744924) can0 430#C76E00002B0700
(1788189999.745175) can0 7E8#04411000AB000000
(1788189999.752965) can0 200#020D0203020D00
(1788189999.753158) can0 201#0B187D6427100064
(1788189999.755071) can0 210#FFFF30A09000DC
(1788189999.755282) can0 4B0#2710271027102710
(1788189999.757978) can0 230#F0011A0061000000
(1788189999.758125) can0 231#0100FFFF
(1788189999.760325) can0 7E0#0322115300000000
(1788189999.762072) can0 7E8#0562115329820000
(1788189999.762926) can0 200#020D0203020D00
(1788189999.763146) can0 201#0B187D6427100064
(1788189999.769086) can0 210#FFFF30A09000DD
(1788189999.769290) can0 4B0#2710271027102710
(1788189999.772967) can0 200#020D0204020D00
(1788189999.773155) can0 201#0B167D3C27100064
(1788189999.782954) can0 200#020D0204020D00
(1788189999.783180) can0 201#0B167D3C27100064
(1788189999.783375) can0 210#FFFF30A09000DE
(1788189999.783633) can0 230#F0011A0061000000
(1788189999.783788) can0 231#0100FFFF
(1788189999.784021) can0 4B0#2710271027102710
(1788189999.792322) can0 7E0#0322115400000000
(1788189999.792925) can0 200#020D0204020D00
(1788189999.793154) can0 201#0B167CD827100064
(1788189999.793723) can0 7DF#02010B0000000000
(1788189999.794074) can0 7E8#056211541DC00000
(1788189999.794911) can0 430#CB6B00002B0700
(1788189999.797070) can0 210#FFFF30A09000DF
(1788189999.797299) can0 4B0#2710271027102710
(1788189999.802962) can0 200#020D0204020D00
(1788189999.803142) can0 201#0B167CD827100064
(1788189999.807970) can0 230#F0011A0061000000
(1788189999.808099) can0 231#0100FFFF
(1788189999.811123) can0 210#FFFF30A09000E0
(1788189999.811305) can0 4B0#2710271027102710
(1788189999.812920) can0 200#020D0204020D00
(1788189999.813142) can0 201#0B0C7CD827100064
(1788189999.822947) can0 200#020D0204020D00
(1788189999.823145) can0 201#0B0C7C3827100064
(1788189999.824849) can0 7E0#0322116900000000
(1788189999.825083) can0 210#FFFF30A09000E1
(1788189999.825304) can0 4B0#2710271027102710
(1788189999.826067) can0 7E8#056211691D9B0000
(1788189999.832964) can0 200#020D0204020D00
(1788189999.833140) can0 201#0B0C7C3827100064
(1788189999.833393) can0 230#F0011A0061000000
(1788189999.833561) can0 231#0100FFFF
(1788189999.833785) can0 420#84000000000000
(1788189999.839130) can0 210#FFFF30A09000E2
(1788189999.839324) can0 4B0#2710271027102710
(1788189999.842927) can0 200#020D0204020D00
(1788189999.843137) can0 201#0B0C7C3827100064
(1788189999.844173) can0 7DF#0201100000000000
(1788189999.844523) can0 7DF#0201420000000000
(1788189999.844768) can0 7E8#04411000AB000000
(1788189999.844995) can0 430#CE6800002B0700
(1788189999.845220) can0 7E0#032217B300000000
(1788189999.850089) can0 7E8#046217B374000000
(1788189999.852922) can0 200#020D0204020D00
(1788189999.853137) can0 201#0B117C3827100064
(1788189999.853359) can0 210#FFFF30A09000E3
(1788189999.853588) can0 4B0#2710271027102710
(1788189999.856847) can0 7E0#0322117300000000
(1788189999.857969) can0 230#F0011A0061000000
(1788189999.858095) can0 231#0100FFFF
(1788189999.858363) can0 7E8#0562117303390000
(1788189999.862950) can0 200#020D0204020D00
(1788189999.863134) can0 201#0B117C3827100064
(1788189999.867126) can0 210#FFFF30A09000E4
(1788189999.867333) can0 4B0#2710271027102710
(1788189999.872957) can0 200#020D0204020D00
(1788189999.873126) can0 201#0B117D6427100064
(1788189999.881143) can0 210#FFFF30A09000E5
(1788189999.881341) can0 4B0#2710271027102710
(1788189999.882904) can0 200#020D0204020D00
(1788189999.883121) can0 201#0B117D6427100064
(1788189999.883365) can0 230#F0011A0061000000
(1788189999.883530) can0 231#0100FFFF
(1788189999.889584) can0 7E0#0322117700000000
(1788189999.890141) can0 7E8#0562117712200000
(1788189999.892959) can0 200#020D0204020D00
(1788189999.893135) can0 201#0B117D8C27100064
(1788189999.893653) can0 7DF#02010B0000000000
(1788189999.894065) can0 7E8#03410B2000000000
(1788189999.894919) can0 430#CE6900002B0700
(1788189999.895111) can0 210#FFFF30A09000E6
(1788189999.895346) can0 4B0#2710271027102710
(1788189999.902912) can0 200#020D0204020D00
(1788189999.903115) can0 201#0B137D8C27100064
(1788189999.907942) can0 230#F0011A0061000000
(1788189999.908072) can0 231#0100FFFF
(1788189999.909124) can0 210#FFFF30A09000E7
(1788189999.909344) can0 4B0#2710271027102710
(1788189999.912901) can0 200#020D0204020D00
(1788189999.913112) can0 201#0B137D8C27100064
(1788189999.921866) can0 7E0#0322141000000000
(1788189999.923055) can0 200#020D0204020D00
(1788189999.923120) can0 201#0B137D2827100064
(1788189999.923353) can0 210#FFFF30A09000E8
(1788189999.923583) can0 4B0#2710271027102710
(1788189999.930067) can0 7E8#0562141000D10000
(1788189999.932942) can0 200#020D0204020D00
(1788189999.933119) can0 201#0B137D2827100064
(1788189999.933370) can0 230#F0011A0061000000
(1788189999.933531) can0 231#0100FFFF
(1788189999.933766) can0 420#84000000000000
(1788189999.937157) can0 210#FFFF30A09000E9
(1788189999.937363) can0 4B0#2710271027102710
(1788189999.942908) can0 200#020D0204020D00
(1788189999.943113) can0 201#0B0D7C8827100064
(1788189999.944676) can0 7DF#0201100000000000
(1788189999.944894) can0 430#CF6800002B0700
(1788189999.945135) can0 7E8#04411000AF000000
(1788189999.951190) can0 210#FFFF30A09000EA
(1788189999.951392) can0 4B0#2710271027102710
(1788189999.952946) can0 200#020D0204020D00
(1788189999.953133) can0 201#0B0D7C8827100064
(1788189999.954758) can0 7E0#0322163100000000
(1788189999.957932) can0 230#F0011A0061000000
(1788189999.958073) can0 231#0100FFFF
(1788189999.962085) can0 7E8#0462163101000000
(1788189999.962884) can0 200#020D0204020D00
(1788189999.963105) can0 201#0B0D7C8827100064
(1788189999.965176) can0 210#FFFF30A09000EB
(1788189999.965377) can0 4B0#2710271027102710
(1788189999.972928) can0 200#020D0204020D00
(1788189999.973107) can0 201#0B0D7C8827100064
(1788189999.979190) can0 210#FFFF30A09000EC
(1788189999.979384) can0 4B0#2710271027102710
(1788189999.982906) can0 200#020D0204020D00
(1788189999.983125) can0 201#0B057C8827100064
(1788189999.983354) can0 230#F0011A0061000000
(1788189999.983518) can0 231#0100FFFF
(1788189999.986890) can0 7E0#0322167800000000
(1788189999.992921) can0 200#020D0204020D00
(1788189999.993105) can0 201#0B057C6027100064
(1788189999.993329) can0 210#FFFF30A09000ED
(1788189999.993571) can0 4B0#2710271027102710
(1788189999.993823) can0 7DF#02010B0000000000
(1788189999.994062) can0 7E8#0562167800000000
(1788189999.994885) can0 430#CF6800002B0700
(1788190000.002887) can0 200#020D0204020D00
(1788190000.003097) can0 201#0B057C6027100064
(1788190000.007179) can0 210#FFFF30A09000EE
(1788190000.007393) can0 4B0#2710271027102710
(1788190000.007898) can0 230#F0011A0061000000
(1788190000.008069) can0 231#0100FFFF
(1788190000.013057) can0 200#020D0204020D00
(1788190000.013129) can0 201#0B057C6027100064
(1788190000.019074) can0 7E0#0322168100000000
(1788190000.021201) can0 210#FFFF30A09000EF
(1788190000.021402) can0 4B0#2710271027102710
(1788190000.022915) can0 200#020D0204020D00
(1788190000.023098) can0 201#0B077C6027100064
(1788190000.026068) can0 7E8#0462168100000000
(1788190000.032892) can0 200#020D0204020D00
(1788190000.033095) can0 201#0B077C6027100064
(1788190000.033336) can0 230#F0011A0061000000
(1788190000.033501) can0 231#0100FFFF
(1788190000.033731) can0 420#84000000000000
(1788190000.035183) can0 210#FFFF30A09000F0
(1788190000.035406) can0 4B0#2710271027102710
(1788190000.042931) can0 200#020D0204020D00
(1788190000.043101) can0 201#0B077D2827100064
(1788190000.043557) can0 7DF#0201100000000000
(1788190000.044030) can0 7E8#04411000AF000000
(1788190000.044906) can0 430#D26500002B0700
(1788190000.049221) can0 210#FFFF30A09000F1
(1788190000.049409) can0 4B0#2710271027102710
(1788190000.051845) can0 7E0#032216CD00000000
(1788190000.052882) can0 200#020D0204020D00
(1788190000.053089) can0 201#0B077D2827100064
(1788190000.057914) can0 230#F0011A0061000000
(1788190000.058057) can0 231#0100FFFF
(1788190000.058295) can0 7E8#056216CD00000000
(1788190000.062900) can0 200#020D0204020D00
(1788190000.063104) can0 201#0B077D2827100064
(1788190000.063331) can0 210#FFFF30A09000F2
(1788190000.063556) can0 4B0#2710271027102710
(1788190000.072916) can0 200#020D0204020D00
(1788190000.073083) can0 201#0B0A7D6427100064
(1788190000.077220) can0 210#FFFF30A09000F3
(1788190000.077424) can0 4B0#2710271027102710
(1788190000.082909) can0 200#020D0204020D00
(1788190000.083081) can0 201#0B0A7D6427100064
(1788190000.083332) can0 230#F0011A0061000000
(1788190000.083493) can0 231#0100FFFF
(1788190000.084493) can0 7E0#032216CE00000000
(1788190000.090050) can0 7E8#056216CEFFF80000
(1788190000.091221) can0 210#FFFF30A09000F4
(1788190000.091438) can0 4B0#2710271027102710
(1788190000.092860) can0 200#020D0204020D00
(1788190000.093076) can0 201#0B0A7D3C27100064
(1788190000.094582) can0 7DF#02010B0000000000
(1788190000.094865) can0 430#D16500002B0700
(1788190000.095108) can0 7E8#03410B2000000000
(1788190000.102906) can0 200#020D0204020D00
(1788190000.103073) can0 201#0B0A7D3C27100064
(1788190000.105250) can0 210#FFFF30A09000F5
(1788190000.105439) can0 4B0#2710271027102710
(1788190000.107899) can0 230#F0011A0061000000
(1788190000.108031) can0 231#0100FFFF
(1788190000.112875) can0 200#020D0204020D00
(1788190000.113067) can0 201#0B0A7D3C27100064
(1788190000.116877) can0 7E0#032216CF00000000
(1788190000.119247) can0 210#FFFF30A09000F6
(1788190000.119446) can0 4B0#2710271027102710
(1788190000.122022) can0 7E8#056216CF0D100000
(1788190000.122877) can0 200#020D0204020D00
(1788190000.123075) can0 201#0B0A7D0027100064
(1788190000.132901) can0 200#020D0204020D00
(1788190000.133075) can0 201#0B0A7D0027100064
(1788190000.133312) can0 210#FFFF30A09000F7
(1788190000.133552) can0 230#F0011A0061000000
(1788190000.133740) can0 231#0100FFFF
(1788190000.133939) can0 420#84000000000000
(1788190000.134181) can0 4B0#2710271027102710
(1788190000.142864) can0 200#020D0204020D00
(1788190000.143068) can0 201#0B0A7D0027100064
(1788190000.143885) can0 7DF#0201100000000000
(1788190000.144262) can0 7E8#04411000AD000000
(1788190000.144868) can0 430#D26800002B0700
(1788190000.147240) can0 210#FFFF30A09000F8
(1788190000.147469) can0 4B0#2710271027102710
(1788190000.149305) can0 7E0#032216E800000000
(1788190000.152856) can0 200#020D0204020D00
(1788190000.153069) can0 201#0B077D0027100064
(1788190000.153988) can0 7E8#056216E845010000
(1788190000.157886) can0 230#F0011A0061000000
(1788190000.158030) can0 231#0100FFFF
(1788190000.161260) can0 210#FFFF30A09000F9
(1788190000.161470) can0 4B0#2710271027102710
(1788190000.162980) can0 200#020D0204020D00
(1788190000.163187) can0 201#0B077D0027100064
(1788190000.172879) can0 200#020D0204020D00
(1788190000.173084) can0 201#0B077CC427100064
(1788190000.175271) can0 210#FFFF30A09000FA
(1788190000.175477) can0 4B0#2710271027102710
(1788190000.181364) can0 7E0#032216E900000000
(1788190000.182835) can0 200#020D0204020D00
(1788190000.183060) can0 201#0B077CC427100064
(1788190000.183300) can0 230#F0011A0061000000
(1788190000.183466) can0 231#0100FFFF
(1788190000.185981) can0 7E8#056216E900750000
(1788190000.189299) can0 210#FFFF30A09000FB
(1788190000.189482) can0 4B0#2710271027102710
(1788190000.192893) can0 200#020D0204020D00
(1788190000.193065) can0 201#0B077CC427100064
(1788190000.194428) can0 7DF#02010B0000000000
(1788190000.194817) can0 7E8#03410B1F00000000
(1788190000.195025) can0 430#CE6900002B0700
(1788190000.202842) can0 200#020D0204020D00
(1788190000.203056) can0 201#0B077CC427100064
(1788190000.203283) can0 210#FFFF30A09000FC
(1788190000.203518) can0 4B0#2710271027102710
(1788190000.207877) can0 230#F0011A0061000000
(1788190000.208017) can0 231#0100FFFF
(1788190000.212861) can0 200#020D0204020D00
(1788190000.213060) can0 201#0B077CC427100064
(1788190000.213475) can0 7E0#032216F000000000
(1788190000.217275) can0 210#FFFF30A09000FD
(1788190000.217493) can0 4B0#2710271027102710
(1788190000.218005) can0 7E8#056216F003830000
(1788190000.222863) can0 200#020D0204020D00
(1788190000.223072) can0 201#0B077D0027100064
(1788190000.231303) can0 210#FFFF30A09000FE
(1788190000.231509) can0 4B0#2710271027102710
(1788190000.232851) can0 200#020D0204020D00
(1788190000.233066) can0 201#0B077D0027100064
(1788190000.233306) can0 230#F0011A0061000000
(1788190000.233476) can0 231#0100FFFF
(1788190000.233728) can0 420#84000000000000
(1788190000.242835) can0 200#020D0204020D00
(1788190000.243040) can0 201#0B097D2827100064
(1788190000.244870) can0 430#CA6B00002B0700
(1788190000.245091) can0 7DF#0201100000000000
(1788190000.245315) can0 210#FFFF30A09000FF
(1788190000.245556) can0 4B0#2710271027102710
(1788190000.245792) can0 7E0#0322170400000000
(1788190000.246041) can0 7E8#04411000A8000000
(1788190000.252872) can0 200#020D0204020D00
(1788190000.253047) can0 201#0B097D2827100064
(1788190000.257861) can0 230#F0011A0061000000
(1788190000.258011) can0 231#0100FFFF
(1788190000.259306) can0 210#FFFF30A0900000
(1788190000.259511) can0 4B0#2710271027102710
(1788190000.262830) can0 200#020D0204020D00
(1788190000.263036) can0 201#0B097D2827100064
(1788190000.272846) can0 200#020D0204020D00
(1788190000.273045) can0 201#0B097D2827100064
(1788190000.273300) can0 210#FFFF30A0900001
(1788190000.273526) can0 4B0#2710271027102710
(1788190000.277519) can0 7E0#0322170600000000
(1788190000.282113) can0 7E8#0462170680000000
(1788190000.282849) can0 200#020D0204020D00
(1788190000.283042) can0 201#0B067D2827100064
(1788190000.283282) can0 230#F0011A0061000000
(1788190000.283450) can0 231#0100FFFF
(1788190000.287320) can0 210#FFFF30A0900002
(1788190000.287522) can0 4B0#2710271027102710
(1788190000.292842) can0 200#020D0204020D00
(1788190000.293047) can0 201#0B067CC427100064
(1788190000.294846) can0 7DF#02010B0000000000
(1788190000.295063) can0 430#C67000002B0700
(1788190000.295306) can0 7E8#03410B1F00000000
(1788190000.301332) can0 210#FFFF30A0900003
(1788190000.301532) can0 4B0#2710271027102710
(1788190000.302798) can0 200#020D0204020D00
(1788190000.303024) can0 201#0B067CC427100064
(1788190000.307842) can0 230#F0011A0061000000
(1788190000.307982) can0 231#0100FFFF
(1788190000.309936) can0 7E0#0322170900000000
(1788190000.312880) can0 200#020D0204020D00
(1788190000.313037) can0 201#0B067CC427100064
(1788190000.314016) can0 7E8#0462170900000000
(1788190000.315349) can0 210#FFFF30A0900004
(1788190000.315545) can0 4B0#2710271027102710
(1788190000.322867) can0 200#020D0204020D00
(1788190000.323059) can0 201#0B007CC427100064
(1788190000.329351) can0 210#FFFF30A0900005
(1788190000.329541) can0 4B0#2710271027102710
(1788190000.332822) can0 200#020D0204020D00
(1788190000.333032) can0 201#0B007CC427100064
(1788190000.333280) can0 230#F0011A0061000000
(1788190000.333445) can0 231#0100FFFF
(1788190000.333702) can0 420#84000000000000
(1788190000.333912) can0 620#0D40121E10000120
(1788190000.334151) can0 630#84019F0000004F4F
(1788190000.342781) can0 7E0#0322171700000000
(1788190000.342992) can0 200#020D0204020D00
(1788190000.343226) can0 201#0B007C8827100064
(1788190000.343444) can0 210#FFFF30A0900006
(1788190000.343687) can0 4B0#2710271027102710
(1788190000.343937) can0 7DF#0201100000000000
(1788190000.344882) can0 430#C37300002B0700
(1788190000.346027) can0 7E8#0462171701000000
(1788190000.352828) can0 200#020D0204020D00
(1788190000.353023) can0 201#0B007C8827100064
(1788190000.357357) can0 210#FFFF30A0900007
(1788190000.357573) can0 4B0#2710271027102710
(1788190000.357827) can0 230#F0011A0061000000
(1788190000.357992) can0 231#0100FFFF
(1788190000.362807) can0 200#020D0204020D00
(1788190000.363014) can0 201#0B017C8827100064
(1788190000.371361) can0 210#FFFF30A0900008
(1788190000.371575) can0 4B0#2710271027102710
(1788190000.372943) can0 200#020D0204020D00
(1788190000.373063) can0 201#0B017C9C27100064
(1788190000.376086) can0 7E0#0322171800000000
(1788190000.378006) can0 7E8#0462171801000000
(1788190000.382811) can0 200#020D0204020D00
(1788190000.383017) can0 201#0B017C9C27100064
(1788190000.383265) can0 230#F0011A0061000000
(1788190000.383425) can0 231#0100FFFF
(1788190000.385368) can0 210#FFFF30A0900009
(1788190000.385569) can0 4B0#2710271027102710
(1788190000.392816) can0 200#020D0204020D00
(1788190000.393022) can0 201#0B017D1427100064
(1788190000.393449) can0 7DF#02010B0000000000
(1788190000.394079) can0 7E8#03410B1F00000000
(1788190000.394843) can0 430#BF7400002B0700
(1788190000.399367) can0 210#FFFF30A090000A
(1788190000.399577) can0 4B0#2710271027102710
(1788190000.402785) can0 200#020D0204020D00
(1788190000.403009) can0 201#0B017D1427100064
(1788190000.407887) can0 230#F0011A0061000000
(1788190000.408010) can0 231#0100FFFF
(1788190000.410127) can0 7E0#0322174600000000
(1788190000.412801) can0 200#020D0204020D00
(1788190000.413013) can0 201#0B057D1427100064
(1788190000.413345) can0 210#FFFF30A090000B
(1788190000.413573) can0 4B0#2710271027102710
(1788190000.417979) can0 7E8#0462174600000000
(1788190000.422814) can0 200#020D0204020D00
(1788190000.423020) can0 201#0B057D5027100064
(1788190000.427380) can0 210#FFFF30A090000C
(1788190000.427583) can0 4B0#2710271027102710
(1788190000.432793) can0 200#020D0204020D00
(1788190000.433008) can0 201#0B057D5027100064
(1788190000.433251) can0 230#F0011A0061000000
(1788190000.433422) can0 231#0100FFFF
(1788190000.433653) can0 420#84000000000000
(1788190000.441401) can0 210#FFFF30A090000D
(1788190000.441609) can0 4B0#2710271027102710
(1788190000.442621) can0 7E0#0322178200000000
(1788190000.442837) can0 200#020D0204020D00
(1788190000.443075) can0 201#0B057D5027100064
(1788190000.443839) can0 7DF#0201100000000000
(1788190000.444843) can0 430#B97700002B0700
(1788190000.449982) can0 7E8#0562178293000000
(1788190000.452791) can0 200#020D0204020D00
(1788190000.453002) can0 201#0B047D5027100064
(1788190000.455411) can0 210#FFFF30A090000E
(1788190000.455604) can0 4B0#2710271027102710
(1788190000.457795) can0 230#F0011A0061000000
(1788190000.457958) can0 231#0100FFFF
(1788190000.462778) can0 200#020D0204020D00
(1788190000.462997) can0 201#0B047D5027100064
(1788190000.469406) can0 210#FFFF30A090000F
(1788190000.469617) can0 4B0#2710271027102710
(1788190000.472793) can0 200#020D0204020D00
(1788190000.473003) can0 201#0B047CEC27100064
(1788190000.474577) can0 7E0#0322178300000000
(1788190000.481988) can0 7E8#056217836EC00000
(1788190000.482779) can0 200#020D0204020D00
(1788190000.483002) can0 201#0B047CEC27100064
(1788190000.483240) can0 230#F0011A0061000000
(1788190000.483451) can0 210#FFFF30A0900010
(1788190000.483619) can0 231#0100FFFF
(1788190000.483857) can0 4B0#2710271027102710
(1788190000.492798) can0 200#020D0204020D00
(1788190000.492995) can0 201#0AFD7C6027100064
(1788190000.494513) can0 7DF#02010B0000000000
(1788190000.494815) can0 430#B67700002B0700
(1788190000.495058) can0 7E8#03410B2000000000
(1788190000.497489) can0 210#FFFF30A0900011
(1788190000.497616) can0 4B0#2710271027102710
(1788190000.502781) can0 200#020D0204020D00
(1788190000.502987) can0 201#0AFD7C6027100064
(1788190000.507005) can0 7E0#032217A000000000
(1788190000.507774) can0 230#F0011A0061000000
(1788190000.507939) can0 231#0100FFFF
(1788190000.511423) can0 210#FFFF30A0900012
(1788190000.511632) can0 4B0#2710271027102710
(1788190000.512781) can0 200#020D0204020D00
(1788190000.512998) can0 201#0AFD7C6027100064
(1788190000.513933) can0 7E8#046217A0FF000000
(1788190000.522786) can0 200#020D0205020D00
(1788190000.522993) can0 201#0AFD7C7427100064
(1788190000.525436) can0 210#FFFF30A0900013
(1788190000.525632) can0 4B0#2710271027102710
(1788190000.532783) can0 200#020D0205020D00
(1788190000.532984) can0 201#0AFD7C7427100064
(1788190000.533236) can0 230#F0011A0061000000
(1788190000.533395) can0 231#0100FFFF
(1788190000.533632) can0 420#84000000000000
(1788190000.538893) can0 7E0#032217A600000000
(1788190000.539412) can0 210#FFFF30A0900014
(1788190000.539636) can0 4B0#2710271027102710
(1788190000.542810) can0 200#020D0204020D00
(1788190000.543020) can0 201#0B007D3C27100064
(1788190000.544016) can0 7DF#0201100000000000
(1788190000.544818) can0 430#BE7400002B0700
(1788190000.545914) can0 7E8#046217A600000000
(1788190000.552875) can0 200#020D0204020D00
(1788190000.553008) can0 201#0B007D3C27100064
(1788190000.553427) can0 210#FFFF30A0900015
(1788190000.553651) can0 4B0#2710271027102710
(1788190000.557798) can0 230#F0011A0061000000
(1788190000.557944) can0 231#0100FFFF
(1788190000.562767) can0 200#020D0204020D00
(1788190000.562973) can0 201#0B007D3C27100064
(1788190000.567446) can0 210#FFFF30A0900016
(1788190000.567655) can0 4B0#2710271027102710
(1788190000.570989) can0 7E0#032217B000000000
(1788190000.572774) can0 200#020D0204020D00
(1788190000.572978) can0 201#0B007D3C27100064
(1788190000.577934) can0 7E8#046217B012000000
(1788190000.581443) can0 210#FFFF30A0900017
(1788190000.581666) can0 4B0#2710271027102710
(1788190000.582808) can0 200#020D0204020D00
(1788190000.582980) can0 201#0B027D3C27100064
(1788190000.583224) can0 230#F0011A0061000000
(1788190000.583391) can0 231#0100FFFF
(1788190000.592769) can0 200#020D0204020D00
(1788190000.592973) can0 201#0B027D2827100064
(1788190000.594177) can0 7DF#02010B0000000000
(1788190000.594549) can0 7E8#03410B1F00000000
(1788190000.594811) can0 430#C37100002B0700
(1788190000.595436) can0 210#FFFF30A0900018
(1788190000.595661) can0 4B0#2710271027102710
(1788190000.602758) can0 200#020D0204020D00
(1788190000.602964) can0 201#0B027D2827100064
(1788190000.603208) can0 7E0#032217B100000000
(1788190000.607784) can0 230#F0011A0061000000
(1788190000.607924) can0 231#0100FFFF
(1788190000.609488) can0 210#FFFF30A0900019
(1788190000.609673) can0 4B0#2710271027102710
(1788190000.609946) can0 7E8#046217B120000000
(1788190000.612761) can0 200#020D0204020D00
(1788190000.612988) can0 201#0B027D2827100064
(1788190000.622767) can0 200#020D0204020D00
(1788190000.622964) can0 201#0AFE7CD827100064
(1788190000.623465) can0 210#FFFF30A090001A
(1788190000.623685) can0 4B0#2710271027102710
(1788190000.632757) can0 200#020D0204020D00
(1788190000.632970) can0 201#0AFE7CD827100064
(1788190000.633206) can0 230#F0011A0061000000
(1788190000.633375) can0 231#0100FFFF
(1788190000.633604) can0 420#84000000000000
(1788190000.635419) can0 7E0#032217B200000000
(1788190000.637484) can0 210#FFFF30A090001B
(1788190000.637714) can0 4B0#2710271027102710
(1788190000.641970) can0 7E8#046217B204000000
(1788190000.642742) can0 200#020D0204020D00
(1788190000.642960) can0 201#0AFE7CB027100064
(1788190000.643818) can0 7DF#0201100000000000
(1788190000.644189) can0 7E8#04411000AB000000
(1788190000.644827) can0 430#C76E00002B0700
(1788190000.651477) can0 210#FFFF30A090001C
(1788190000.651687) can0 4B0#2710271027102710
(1788190000.652752) can0 200#020D0204020D00
(1788190000.652973) can0 201#0AFE7CB027100064
(1788190000.657798) can0 230#F0011A0061000000
(1788190000.657915) can0 231#0100FFFF
(1788190000.662733) can0 200#020D0204020D00
(1788190000.662943) can0 201#0AF47CB027100064
(1788190000.665531) can0 210#FFFF30A090001D
(1788190000.665733) can0 4B0#2710271027102710
(1788190000.668083) can0 7E0#032217B300000000
(1788190000.672750) can0 200#020E0205020E00
(1788190000.672957) can0 201#0AF47C3827100064
(1788190000.673914) can0 7E8#046217B374000000
(1788190000.679506) can0 210#FFFF30A090001E
(1788190000.679716) can0 4B0#2710271027102710
(1788190000.682743) can0 200#020E0205020E00
(1788190000.682947) can0 201#0AF47C3827100064
(1788190000.683194) can0 230#F0011A0061000000
(1788190000.683358) can0 231#0100FFFF
(1788190000.692740) can0 200#020E0205020E00
(1788190000.692949) can0 201#0AF47C3827100064
(1788190000.693505) can0 210#FFFF30A090001F
(1788190000.693749) can0 4B0#2710271027102710
(1788190000.694416) can0 7DF#02010B0000000000
(1788190000.694804) can0 430#CB6C00002B0700
(1788190000.695040) can0 7E8#03410B2000000000
(1788190000.701393) can0 7E0#032217B500000000
(1788190000.702744) can0 200#020E0205020E00
(1788190000.702956) can0 201#0AF47C3827100064
(1788190000.705925) can0 7E8#046217B550000000
(1788190000.707519) can0 210#FFFF30A0900020
(1788190000.707729) can0 4B0#2710271027102710
(1788190000.707968) can0 230#F0011A0061000000
(1788190000.708129) can0 231#0100FFFF
(1788190000.712763) can0 200#020E0205020E00
(1788190000.712961) can0 201#0AFE7C3827100064
(1788190000.721526) can0 210#FFFF30A0900021
(1788190000.721744) can0 4B0#2710271027102710
(1788190000.722761) can0 200#020E0205020E00
(1788190000.722969) can0 201#0AFE7DC827100064
(1788190000.732740) can0 200#020E0205020E00
(1788190000.732955) can0 201#0AFE7DC827100064
(1788190000.733203) can0 230#F0011A0061000000
(1788190000.733366) can0 231#0100FFFF
(1788190000.733591) can0 420#84000000000000
(1788190000.734367) can0 7E0#032217B600000000
(1788190000.735515) can0 210#FFFF30A0900022
(1788190000.735728) can0 4B0#2710271027102710
(1788190000.737900) can0 7E8#046217B600000000
(1788190000.742740) can0 200#020E0205020E00
(1788190000.742938) can0 201#0AFE7DC827100064
(1788190000.744421) can0 7DF#0201100000000000
(1788190000.744798) can0 430#CA6C00002B0700
(1788190000.745034) can0 7E8#04411000AF000000
(1788190000.749531) can0 210#FFFF30A0900023
(1788190000.749731) can0 4B0#2710271027102710
(1788190000.752714) can0 200#020E0205020E00
(1788190000.752934) can0 201#0B017DC827100064
(1788190000.757795) can0 230#F0011A0061000000
(1788190000.757909) can0 231#0100FFFF
(1788190000.762723) can0 200#020E0205020E00
(1788190000.762936) can0 201#0B017DC827100064
(1788190000.763521) can0 210#FFFF30A0900024
(1788190000.763738) can0 4B0#2710271027102710
(1788190000.766338) can0 7E0#032217B800000000
(1788190000.769885) can0 7E8#046217B8EF000000
(1788190000.772740) can0 200#020D0205020D00
(1788190000.772934) can0 201#0B017D3C27100064
(1788190000.777550) can0 210#FFFF30A0900025
(1788190000.777743) can0 4B0#2710271027102710
(1788190000.782718) can0 200#020D0205020D00
(1788190000.782927) can0 201#0B017D3C27100064
(1788190000.783169) can0 230#F0011A0061000000
(1788190000.783338) can0 231#0100FFFF
(1788190000.791545) can0 210#FFFF30A0900026
(1788190000.791752) can0 4B0#2710271027102710
(1788190000.792733) can0 200#020E0205020E00
(1788190000.792954) can0 201#0AF97C9C27100064
(1788190000.794793) can0 430#CA6B00002B0700
(1788190000.795018) can0 7DF#02010B0000000000
(1788190000.795428) can0 7E8#03410B2000000000
(1788190000.798709) can0 7E0#032217BA00000000
(1788190000.801898) can0 7E8#046217BA00000000
(1788190000.802712) can0 200#020E0205020E00
(1788190000.802927) can0 201#0AF97C9C27100064
(1788190000.805550) can0 210#FFFF30A0900027
(1788190000.805766) can0 4B0#2710271027102710
(1788190000.807719) can0 230#F0011A0061000000
(1788190000.807868) can0 231#0100FFFF
(1788190000.812705) can0 200#020E0205020E00
(1788190000.812920) can0 201#0AF97C9C27100064
(1788190000.819642) can0 210#FFFF30A0900028
(1788190000.819791) can0 4B0#2710271027102710
(1788190000.822709) can0 200#020E0205020E00
(1788190000.822927) can0 201#0AF97C6027100064
(1788190000.831881) can0 7E0#032217BB00000000
(1788190000.832694) can0 200#020E0205020E00
(1788190000.832917) can0 201#0AEF7C6027100064
(1788190000.833163) can0 230#F0011A0061000000
(1788190000.833327) can0 231#0100FFFF
(1788190000.833553) can0 210#FFFF30A0900029
(1788190000.833782) can0 420#84000000000000
(1788190000.834012) can0 4B0#2710271027102710
(1788190000.834251) can0 7E8#046217BB00000000
(1788190000.842711) can0 200#020E0205020E00
(1788190000.842920) can0 201#0AEF7C3827100064
(1788190000.844440) can0 7DF#0201100000000000
(1788190000.844772) can0 7DF#0201420000000000
(1788190000.845000) can0 430#CF6800002B0700
(1788190000.845248) can0 7E8#04411000AB000000
(1788190000.847614) can0 210#FFFF30A090002A
(1788190000.847798) can0 4B0#2710271027102710
(1788190000.852711) can0 200#020E0205020E00
(1788190000.852918) can0 201#0AEF7C3827100064
(1788190000.857752) can0 230#F0011A0061000000
(1788190000.857877) can0 231#0100FFFF
(1788190000.861581) can0 210#FFFF30A090002B
(1788190000.861785) can0 4B0#2710271027102710
(1788190000.862734) can0 200#020E0205020E00
(1788190000.862947) can0 201#0AEF7C3827100064
(1788190000.863705) can0 7E0#032217BC00000000
(1788190000.865889) can0 7E8#046217BC00000000
(1788190000.872734) can0 200#020E0205020E00
(1788190000.872915) can0 201#0AEF7C3827100064
(1788190000.875584) can0 210#FFFF30A090002C
(1788190000.875789) can0 4B0#2710271027102710
(1788190000.882731) can0 200#020E0205020E00
(1788190000.882913) can0 201#0AEC7C3827100064
(1788190000.883164) can0 230#F0011A0061000000
(1788190000.883327) can0 231#0100FFFF
(1788190000.889599) can0 210#FFFF30A090002D
(1788190000.889794) can0 4B0#2710271027102710
(1788190000.892698) can0 200#020E0205020E00
(1788190000.892901) can0 201#0AEC7CC427100064
(1788190000.893902) can0 7DF#02010B0000000000
(1788190000.894292) can0 7E8#03410B2000000000
(1788190000.894784) can0 430#D16500002B0700
(1788190000.896253) can0 7E0#032217BD00000000
(1788190000.897867) can0 7E8#046217BD51000000
(1788190000.902690) can0 200#020E0205020E00
(1788190000.902893) can0 201#0AEC7CC427100064
(1788190000.903571) can0 210#FFFF30A090002E
(1788190000.903796) can0 4B0#2710271027102710
(1788190000.907705) can0 230#F0011A0061000000
(1788190000.907851) can0 231#0100FFFF
(1788190000.912716) can0 200#020E0205020E00
(1788190000.912898) can0 201#0AEC7CC427100064
(1788190000.917612) can0 210#FFFF30A090002F
(1788190000.917817) can0 4B0#2710271027102710
(1788190000.922721) can0 200#020E0206020E00
(1788190000.922899) can0 201#0AEB7CB027100064
(1788190000.928109) can0 7E0#032217BE00000000
(1788190000.929875) can0 7E8#056217BE00000000
(1788190000.931596) can0 210#FFFF30A0900030
(1788190000.931813) can0 4B0#2710271027102710
(1788190000.932680) can0 200#020E0206020E00
(1788190000.932915) can0 201#0AEB7CB027100064
(1788190000.933158) can0 230#F0011A0061000000
(1788190000.933327) can0 231#0100FFFF
(1788190000.933555) can0 420#84000000000000
(1788190000.942713) can0 200#020E0206020E00
(1788190000.942900) can0 201#0AEB7CEC27100064
(1788190000.944477) can0 7DF#0201100000000000
(1788190000.944770) can0 430#D36400002B0700
(1788190000.945005) can0 7E8#04411000AB000000
(1788190000.945618) can0 210#FFFF30A0900031
(1788190000.945824) can0 4B0#2710271027102710
(1788190000.952681) can0 200#020E0206020E00
(1788190000.952891) can0 201#0AEB7CEC27100064
(1788190000.957764) can0 230#F0011A0061000000
(1788190000.957851) can0 231#0100FFFF
(1788190000.959642) can0 210#FFFF30A0900032
(1788190000.959831) can0 4B0#2710271027102710
(1788190000.960447) can0 7E0#032217C100000000
(1788190000.961836) can0 7E8#046217C1EA000000
(1788190000.962657) can0 200#020E0206020E00
(1788190000.962892) can0 201#0AEB7CEC27100064
(1788190000.972708) can0 200#020E0206020E00
(1788190000.972892) can0 201#0AEB7D0027100064
(1788190000.973643) can0 210#FFFF30A0900033
(1788190000.973836) can0 4B0#2710271027102710
(1788190000.982708) can0 200#020E0206020E00
(1788190000.982885) can0 201#0AEB7D0027100064
(1788190000.983132) can0 230#F0011A0061000000
(1788190000.983297) can0 231#0100FFFF
(1788190000.987646) can0 210#FFFF30A0900034
(1788190000.987843) can0 4B0#2710271027102710
(1788190000.992504) can0 7E0#0322320100000000
(1788190000.992727) can0 200#020E0206020E00
(1788190000.992961) can0 201#0AEB7D0027100064
(1788190000.993826) can0 7E8#0562320117700000
(1788190000.994168) can0 7DF#02010B0000000000
(1788190000.994550) can0 7E8#03410B2000000000
(1788190000.994772) can0 430#D26600002B0700
(1788190001.001791) can0 210#FFFF30A0900035
(1788190001.001871) can0 4B0#2710271027102710
(1788190001.002719) can0 200#020E0206020E00
(1788190001.002914) can0 201#0AEB7D0027100064
(1788190001.007702) can0 230#F0011A0061000000
(1788190001.007832) can0 231#0100FFFF
(1788190001.012683) can0 200#020E0206020E00
(1788190001.012880) can0 201#0AEC7D0027100064
(1788190001.015651) can0 210#FFFF30A0900036
(1788190001.015859) can0 4B0#2710271027102710
(1788190001.022689) can0 200#020E0205020E00
(1788190001.022882) can0 201#0AEC7D1427100064
(1788190001.024490) can0 7E0#0322990A00000000
(1788190001.025839) can0 7E8#0462990A4F000000
(1788190001.029764) can0 210#FFFF30A0900037
(1788190001.029885) can0 4B0#2710271027102710
(1788190001.032687) can0 200#020E0205020E00
(1788190001.032880) can0 201#0AEC7D1427100064
(1788190001.033127) can0 230#F0011A0061000000
(1788190001.033291) can0 231#0100FFFF
(1788190001.033527) can0 420#84000000000000
(1788190001.042670) can0 200#020F0206020F00
(1788190001.042873) can0 201#0AEC7D1427100064
(1788190001.043504) can0 7DF#0201100000000000
(1788190001.043721) can0 210#FFFF30A0900038
(1788190001.043949) can0 4B0#2710271027102710
(1788190001.044196) can0 7E8#04411000AD000000
(1788190001.044743) can0 430#CE6900002B0700
(1788190001.052668) can0 200#020F0206020F00
(1788190001.052868) can0 201#0AF47D1427100064
(1788190001.056406) can0 7E0#0322996E00000000
(1788190001.057649) can0 210#FFFF30A0900039
(1788190001.057880) can0 230#F0011A0061000000
(1788190001.058048) can0 231#0100FFFF
(1788190001.058281) can0 4B0#2710271027102710
(1788190001.058518) can0 7E8#0562996E06A40000
(1788190001.062882) can0 200#020F0206020F00
(1788190001.062935) can0 201#0AF47D1427100064
(1788190001.071690) can0 210#FFFF30A090003A
(1788190001.071878) can0 4B0#2710271027102710
(1788190001.072662) can0 200#020E0205020E00
(1788190001.072890) can0 201#0AF47DA027100064
(1788190001.082661) can0 200#020E0205020E00
(1788190001.082858) can0 201#0AF47DA027100064
(1788190001.083099) can0 230#F0011A0061000000
(1788190001.083266) can0 231#0100FFFF
(1788190001.085659) can0 210#FFFF30A090003B
(1788190001.085885) can0 4B0#2710271027102710
(1788190001.089116) can0 7E0#0322A21100000000
(1788190001.089914) can0 7E8#0562A21100000000
(1788190001.092691) can0 200#020E0205020E00
(1788190001.092870) can0 201#0AFF7E7C27100064
(1788190001.094070) can0 7DF#02010B0000000000
(1788190001.094454) can0 7E8#03410B2000000000
(1788190001.094756) can0 430#C76E00002B0700
(1788190001.099687) can0 210#FFFF30A090003C
(1788190001.099888) can0 4B0#2710271027102710
(1788190001.102642) can0 200#020E0205020E00
(1788190001.102855) can0 201#0AFF7E7C27100064
(1788190001.107683) can0 230#F0011A0061000000
(1788190001.107811) can0 231#0100FFFF
(1788190001.112658) can0 200#020E0205020E00
(1788190001.112856) can0 201#0AFF7E7C27100064
(1788190001.113661) can0 210#FFFF30A090003D
(1788190001.113891) can0 4B0#2710271027102710
(1788190001.122656) can0 200#020E0205020E00
(1788190001.122861) can0 201#0AFF7DDC27100064
(1788190001.123121) can0 7E0#0322D10000000000
(1788190001.127704) can0 210#FFFF30A090003E
(1788190001.127903) can0 4B0#2710271027102710
(1788190001.129819) can0 7E8#0462D10081000000
(1788190001.132689) can0 200#020E0205020E00
(1788190001.132852) can0 201#0AFA7DDC27100064
(1788190001.133091) can0 230#F0011A0061000000
(1788190001.133274) can0 231#0100FFFF
(1788190001.133495) can0 420#84000000000000
(1788190001.141724) can0 210#FFFF30A090003F
(1788190001.141908) can0 4B0#2710271027102710
(1788190001.142640) can0 200#020E0205020E00
(1788190001.142868) can0 201#0AFA7C9C27100064
(1788190001.143478) can0 7DF#0201100000000000
(1788190001.143911) can0 7E8#04411000A8000000
(1788190001.144740) can0 430#C37100002B0700
(1788190001.152663) can0 200#020E0205020E00
(1788190001.152856) can0 201#0AFA7C9C27100064
(1788190001.155005) can0 7E0#0322E21B00000000
(1788190001.155715) can0 210#FFFF30A0900040
(1788190001.155924) can0 4B0#2710271027102710
(1788190001.157656) can0 230#F0011A0061000000
(1788190001.157809) can0 231#0100FFFF
(1788190001.161804) can0 7E8#0762E21B5A4A3135
(1788190001.162616) can0 200#020E0205020E00
(1788190001.162839) can0 201#0AFA7C9C27100064
(1788190001.169742) can0 210#FFFF30A0900041
(1788190001.169924) can0 4B0#2710271027102710
(1788190001.172638) can0 200#020E0205020E00
(1788190001.172858) can0 201#0AFA7C9C27100064
(1788190001.182653) can0 200#020E0205020E00
(1788190001.182868) can0 201#0AEC7C9C27100064
(1788190001.183085) can0 230#F0011A0061000000
(1788190001.183248) can0 231#0100FFFF
(1788190001.183708) can0 210#FFFF30A0900042
(1788190001.183930) can0 4B0#2710271027102710
(1788190001.187141) can0 7E0#0322E21C00000000
(1788190001.192642) can0 200#020E0206020E00
(1788190001.192838) can0 201#0AEC7BE827100064
(1788190001.193786) can0 7E8#0562E21C31380000
(1788190001.194023) can0 7DF#02010B0000000000
(1788190001.194406) can0 7E8#03410B2000000000
(1788190001.194729) can0 430#BF7300002B0700
(1788190001.197769) can0 210#FFFF30A0900043
(1788190001.197938) can0 4B0#2710271027102710
(1788190001.202619) can0 200#020E0206020E00
(1788190001.202829) can0 201#0AEC7BE827100064
(1788190001.207737) can0 230#F0011A0061000000
(1788190001.207813) can0 231#0100FFFF
(1788190001.211760) can0 210#FFFF30A0900044
(1788190001.211972) can0 4B0#2710271027102710
(1788190001.212675) can0 200#020E0206020E00
(1788190001.212872) can0 201#0AEC7BE827100064
(1788190001.219782) can0 7E0#0322E21D00000000
(1788190001.222637) can0 200#020E0205020E00
(1788190001.222832) can0 201#0AF07C3827100064
(1788190001.225772) can0 210#FFFF30A0900045
(1788190001.225955) can0 4B0#2710271027102710
(1788190001.226192) can0 7E8#0662E21D38383100
(1788190001.232624) can0 200#020E0205020E00
(1788190001.232831) can0 201#0AF07C3827100064
(1788190001.233069) can0 230#F0011A0061000000
(1788190001.233240) can0 231#0100FFFF
(1788190001.233467) can0 420#84000000000000
(1788190001.239759) can0 210#FFFF30A0900046
(1788190001.239957) can0 4B0#2710271027102710
(1788190001.242631) can0 200#020E0205020E00
(1788190001.242833) can0 201#0AF07D5027100064
(1788190001.244302) can0 7DF#0201100000000000
(1788190001.244740) can0 430#C37100002B0700
(1788190001.244977) can0 7E8#04411000AF000000
(1788190001.252636) can0 200#020E0205020E00
(1788190001.252831) can0 201#0AF07D5027100064
(1788190001.253734) can0 7E0#0322E21E00000000
(1788190001.253942) can0 210#FFFF30A0900047
(1788190001.254174) can0 4B0#2710271027102710
(1788190001.257655) can0 230#F0011A0061000000
(1788190001.257791) can0 231#0100FFFF
(1788190001.258023) can0 7E8#0462E21E46000000
(1788190001.262686) can0 200#020E0205020E00
(1788190001.262895) can0 201#0AF97D5027100064
(1788190001.267761) can0 210#FFFF30A0900048
(1788190001.267967) can0 4B0#2710271027102710
(1788190001.272641) can0 200#020E0205020E00
(1788190001.272830) can0 201#0AF97DB427100064
(1788190001.281802) can0 210#FFFF30A0900049
(1788190001.282025) can0 4B0#2710271027102710
(1788190001.282620) can0 200#020E0205020E00
(1788190001.282844) can0 201#0AF97DB427100064
(1788190001.283084) can0 230#F0011A0061000000
(1788190001.283250) can0 231#0100FFFF
(1788190001.285746) can0 7E0#0322E6F000000000
(1788190001.289779) can0 7E8#0762E6F05A4A3135
(1788190001.292615) can0 200#020E0205020E00
(1788190001.292818) can0 201#0AF97DB427100064
(1788190001.294727) can0 430#BE7500002B0700
(1788190001.294950) can0 7DF#02010B0000000000
(1788190001.295339) can0 7E8#03410B2000000000
(1788190001.295754) can0 210#FFFF30A090004A
(1788190001.295976) can0 4B0#2710271027102710
(1788190001.302598) can0 200#020E0205020E00
(1788190001.302811) can0 201#0AF97DB427100064
(1788190001.307693) can0 230#F0011A0061000000
(1788190001.307861) can0 231#0100FFFF
(1788190001.309819) can0 210#FFFF30A090004B
(1788190001.310005) can0 4B0#2710271027102710
(1788190001.312609) can0 200#020E0205020E00
(1788190001.312815) can0 201#0AF97DB427100064
(1788190001.318033) can0 7E0#0322E6F200000000
(1788190001.321792) can0 7E8#0462E6F2F0000000
(1788190001.322613) can0 200#020E0205020E00
(1788190001.322826) can0 201#0AF97D0027100064
(1788190001.323788) can0 210#FFFF30A090004C
(1788190001.323998) can0 4B0#2710271027102710
(1788190001.332608) can0 200#020E0205020E00
(1788190001.332814) can0 201#0AF97D0027100064
(1788190001.333058) can0 230#F0011A0061000000
(1788190001.333225) can0 231#0100FFFF
(1788190001.333454) can0 420#84000000000000
(1788190001.333720) can0 620#0D40121E10000120
(1788190001.333948) can0 630#84019F0000004F4F
(1788190001.337816) can0 210#FFFF30A090004D
(1788190001.337998) can0 4B0#2710271027102710
(1788190001.342597) can0 200#020E0205020E00
(1788190001.342810) can0 201#0AF97D0027100064
(1788190001.344174) can0 7DF#0201100000000000
(1788190001.344693) can0 7E8#04411000B2000000
(1788190001.344921) can0 430#C37300002B0700
(1788190001.349890) can0 7E0#0322E6F300000000
(1788190001.351800) can0 210#FFFF30A090004E
(1788190001.352009) can0 4B0#2710271027102710
(1788190001.352599) can0 200#020E0205020E00
(1788190001.352827) can0 201#0AF37D0027100064
(1788190001.353754) can0 7E8#0462E6F3F0000000
(1788190001.357639) can0 230#F0011A0061000000
(1788190001.357778) can0 231#0100FFFF
(1788190001.362700) can0 200#020E0205020E00
(1788190001.362899) can0 201#0AF37D0027100064
(1788190001.365823) can0 210#FFFF30A090004F
(1788190001.366015) can0 4B0#2710271027102710
(1788190001.372606) can0 200#020E0205020E00
(1788190001.372811) can0 201#0AF37C8827100064
(1788190001.379821) can0 210#FFFF30A0900050
(1788190001.380020) can0 4B0#2710271027102710
(1788190001.381830) can0 7DF#0201050000000000
(1788190001.382190) can0 7E8#0341058400000000
(1788190001.382566) can0 200#020E0205020E00
(1788190001.382794) can0 201#0AF37C8827100064
(1788190001.383039) can0 230#F0011A0061000000
(1788190001.383207) can0 231#0100FFFF
(1788190001.392610) can0 200#020E0205020E00
(1788190001.392793) can0 201#0AFB7D2827100064
(1788190001.393818) can0 210#FFFF30A0900051
(1788190001.394030) can0 4B0#2710271027102710
(1788190001.394344) can0 7DF#02010B0000000000
(1788190001.394704) can0 430#C07200002B0700
(1788190001.394950) can0 7E8#03410B2000000000
(1788190001.402580) can0 200#020E0205020E00
(1788190001.402787) can0 201#0AFB7D2827100064
(1788190001.407607) can0 230#F0011A0061000000
(1788190001.407742) can0 231#0100FFFF
(1788190001.407958) can0 210#FFFF30A0900052
(1788190001.408187) can0 4B0#2710271027102710
(1788190001.412585) can0 200#020E0205020E00
(1788190001.412792) can0 201#0AFB7D2827100064
(1788190001.413659) can0 7DF#02010F0000000000
(1788190001.414036) can0 7E8#03410F5F00000000
(1788190001.421853) can0 210#FFFF30A0900053
(1788190001.422045) can0 4B0#2710271027102710
(1788190001.422641) can0 200#020E0205020E00
(1788190001.422827) can0 201#0AFB7DA027100064
(1788190001.432592) can0 200#020E0205020E00
(1788190001.432786) can0 201#0AFC7DA027100064
(1788190001.433021) can0 230#F0011A0061000000
(1788190001.433194) can0 231#0100FFFF
(1788190001.433420) can0 420#84000000000000
(1788190001.435832) can0 210#FFFF30A0900054
(1788190001.436044) can0 4B0#2710271027102710
(1788190001.442569) can0 200#020E0205020E00
(1788190001.442775) can0 201#0AFC7D1427100064
(1788190001.443644) can0 7DF#0201100000000000
(1788190001.444049) can0 7E8#04411000AD000000
(1788190001.444718) can0 430#C27100002B0700
(1788190001.445936) can0 7DF#0201100000000000
(1788190001.446320) can0 7E8#04411000AD000000
(1788190001.449845) can0 210#FFFF30A0900055
(1788190001.450052) can0 4B0#2710271027102710
(1788190001.452598) can0 200#020E0205020E00
(1788190001.452785) can0 201#0AFC7D1427100064
(1788190001.457602) can0 230#F0011A0061000000
(1788190001.457749) can0 231#0100FFFF
(1788190001.462578) can0 200#020E0205020E00
(1788190001.462782) can0 201#0AFC7D1427100064
(1788190001.463841) can0 210#FFFF30A0900056
(1788190001.464060) can0 4B0#2710271027102710
(1788190001.472599) can0 200#020E0205020E00
(1788190001.472779) can0 201#0AFC7D1427100064
(1788190001.477709) can0 7DF#02010B0000000000
(1788190001.477895) can0 210#FFFF30A0900057
(1788190001.478124) can0 4B0#2710271027102710
(1788190001.478370) can0 7E8#03410B2000000000
(1788190001.482668) can0 200#020E0205020E00
(1788190001.482823) can0 201#0AF77D1427100064
(1788190001.483052) can0 230#F0011A0061000000
(1788190001.483230) can0 231#0100FFFF
(1788190001.491875) can0 210#FFFF30A0900058
(1788190001.492076) can0 4B0#2710271027102710
(1788190001.492564) can0 200#020E0205020E00
(1788190001.492789) can0 201#0AF77C9C27100064
(1788190001.494256) can0 7DF#02010B0000000000
(1788190001.494684) can0 7E8#03410B2000000000
(1788190001.494905) can0 430#C37100002B0700
(1788190001.502561) can0 200#020E0205020E00
(1788190001.502759) can0 201#0AF77C9C27100064
(1788190001.505863) can0 210#FFFF30A0900059
(1788190001.506074) can0 4B0#2710271027102710
(1788190001.507573) can0 230#F0011A0061000000
(1788190001.507715) can0 231#0100FFFF
(1788190001.510046) can0 7DF#0201060000000000
(1788190001.510422) can0 7E8#0341067F00000000
(1788190001.512767) can0 200#020E0205020E00
(1788190001.512823) can0 201#0AF77C9C27100064
(1788190001.519890) can0 210#FFFF30A090005A
(1788190001.520094) can0 4B0#2710271027102710
(1788190001.522559) can0 200#020E0206020E00
(1788190001.522757) can0 201#0AED7BD427100064
(1788190001.532562) can0 200#020E0206020E00
(1788190001.532765) can0 201#0AED7BD427100064
(1788190001.533004) can0 230#F0011A0061000000
(1788190001.533167) can0 231#0100FFFF
(1788190001.533393) can0 420#84000000000000
(1788190001.533852) can0 210#FFFF30A090005B
(1788190001.534081) can0 4B0#2710271027102710
(1788190001.542566) can0 200#020F0206020F00
(1788190001.542787) can0 201#0AED7C3827100064
(1788190001.543019) can0 7DF#0201070000000000
(1788190001.543420) can0 7E8#0341077F00000000
(1788190001.543769) can0 7DF#0201100000000000
(1788190001.544158) can0 7E8#04411000AD000000
(1788190001.544699) can0 430#C37100002B0700
(1788190001.547903) can0 210#FFFF30A090005C
(1788190001.548094) can0 4B0#2710271027102710
(1788190001.552562) can0 200#020F0206020F00
(1788190001.552764) can0 201#0AED7C3827100064
(1788190001.557597) can0 230#F0011A0061000000
(1788190001.557735) can0 231#0100FFFF
(1788190001.561882) can0 210#FFFF30A090005D
(1788190001.562096) can0 4B0#2710271027102710
(1788190001.562539) can0 200#020F0206020F00
(1788190001.562774) can0 201#0AF37C3827100064
(1788190001.572554) can0 200#020E0205020E00
(1788190001.572766) can0 201#0AF37D7827100064
(1788190001.575353) can0 7DF#02010E0000000000
(1788190001.575828) can0 7E8#03410E9400000000
(1788190001.576042) can0 210#FFFF30A090005E
(1788190001.576280) can0 4B0#2710271027102710
(1788190001.582549) can0 200#020E0205020E00
(1788190001.582748) can0 201#0AF37D7827100064
(1788190001.582993) can0 230#F0011A0061000000
(1788190001.583157) can0 231#0100FFFF
(1788190001.589908) can0 210#FFFF30A090005F
(1788190001.590111) can0 4B0#2710271027102710
(1788190001.592525) can0 200#020E0205020E00
(1788190001.592752) can0 201#0AF37D7827100064
(1788190001.594520) can0 7DF#02010B0000000000
(1788190001.594732) can0 430#C76F00002B0700
(1788190001.594979) can0 7E8#03410B2000000000
(1788190001.602542) can0 200#020E0205020E00
(1788190001.602743) can0 201#0AFC7D7827100064
(1788190001.603894) can0 210#FFFF30A0900060
(1788190001.604117) can0 4B0#2710271027102710
(1788190001.607559) can0 230#F0011A0061000000
(1788190001.607691) can0 231#0100FFFF
(1788190001.607933) can0 7DF#0201420000000000
(1788190001.608333) can0 7E8#04414235C7000000
(1788190001.612546) can0 200#020E0205020E00
(1788190001.612755) can0 201#0AFC7D7827100064
(1788190001.617914) can0 210#FFFF30A0900061
(1788190001.618121) can0 4B0#2710271027102710
(1788190001.622542) can0 200#020E0205020E00
(1788190001.622751) can0 201#0AFC7DB427100064
(1788190001.631931) can0 210#FFFF30A0900062
(1788190001.632136) can0 4B0#2710271027102710
(1788190001.632538) can0 200#020E0205020E00
(1788190001.632771) can0 201#0AFC7DB427100064
(1788190001.633014) can0 230#F0011A0061000000
(1788190001.633184) can0 231#0100FFFF
(1788190001.633414) can0 420#84000000000000
(1788190001.642563) can0 200#020E0205020E00
(1788190001.642756) can0 201#0AFC7DB427100064
(1788190001.643951) can0 7E0#0322000000000000
(1788190001.644525) can0 7DF#0201100000000000
(1788190001.644723) can0 430#CA6C00002B0700
(1788190001.645926) can0 210#FFFF30A0900063
(1788190001.646138) can0 4B0#2710271027102710
(1788190001.649635) can0 7E8#07620000BE3FB013
(1788190001.652537) can0 200#020E0205020E00
(1788190001.652740) can0 201#0AFC7DB427100064
(1788190001.657569) can0 230#F0011A0061000000
(1788190001.657733) can0 231#0100FFFF
(1788190001.659947) can0 210#FFFF30A0900064
(1788190001.660155) can0 4B0#2710271027102710
(1788190001.662536) can0 200#020E0205020E00
(1788190001.662735) can0 201#0AFC7DB427100064
(1788190001.672532) can0 200#020E0205020E00
(1788190001.672742) can0 201#0AFC7D0027100064
(1788190001.673944) can0 210#FFFF30A0900065
(1788190001.674155) can0 4B0#2710271027102710
(1788190001.676469) can0 7E0#0322000200000000
(1788190001.681713) can0 7E8#0562000200000000
(1788190001.682544) can0 200#020E0205020E00
(1788190001.682752) can0 201#0AFC7D0027100064
(1788190001.683021) can0 230#F0011A0061000000
(1788190001.683133) can0 231#0100FFFF
(1788190001.687960) can0 210#FFFF30A0900066
(1788190001.688164) can0 4B0#2710271027102710
(1788190001.692540) can0 200#020E0205020E00
(1788190001.692757) can0 201#0AF27C3827100064
(1788190001.693890) can0 7DF#02010B0000000000
(1788190001.694304) can0 7E8#03410B2000000000
(1788190001.694688) can0 430#CE6800002B0700
(1788190001.701960) can0 210#FFFF30A0900067
(1788190001.702161) can0 4B0#2710271027102710
(1788190001.702506) can0 200#020E0205020E00
(1788190001.702742) can0 201#0AF27C3827100064
(1788190001.707552) can0 230#F0011A0061000000
(1788190001.707673) can0 231#0100FFFF
(1788190001.708526) can0 7E0#0322000300000000
(1788190001.712526) can0 200#020E0205020E00
(1788190001.712731) can0 201#0AF27C3827100064
(1788190001.713618) can0 7E8#0562000302000000
(1788190001.715963) can0 210#FFFF30A0900068
(1788190001.716171) can0 4B0#2710271027102710
(1788190001.722526) can0 200#020E0205020E00
(1788190001.722726) can0 201#0AF27C3827100064
(1788190001.729971) can0 210#FFFF30A0900069
(1788190001.730175) can0 4B0#2710271027102710
(1788190001.732495) can0 200#020E0205020E00
(1788190001.732721) can0 201#0AF87C3827100064
(1788190001.732962) can0 230#F0011A0061000000
(1788190001.733131) can0 231#0100FFFF
(1788190001.733359) can0 420#84000000000000
(1788190001.742510) can0 200#020E0205020E00
(1788190001.742721) can0 201#0AF87D7827100064
(1788190001.742970) can0 7E0#0322000500000000
(1788190001.743978) can0 210#FFFF30A090006A
(1788190001.744189) can0 4B0#2710271027102710
(1788190001.744432) can0 7DF#0201100000000000
(1788190001.744665) can0 430#D26500002B0700
(1788190001.745636) can0 7E8#0462000584000000
(1788190001.752509) can0 200#020E0205020E00
(1788190001.752715) can0 201#0AF87D7827100064
(1788190001.757572) can0 230#F0011A0061000000
(1788190001.757719) can0 231#0100FFFF
(1788190001.757956) can0 210#FFFF30A090006B
(1788190001.758192) can0 4B0#2710271027102710
(1788190001.762496) can0 200#020E0205020E00
(1788190001.762712) can0 201#0AF87D7827100064
(1788190001.771998) can0 210#FFFF30A090006C
(1788190001.772205) can0 4B0#2710271027102710
(1788190001.772509) can0 200#020E0205020E00
(1788190001.772738) can0 201#0AF87D7827100064
(1788190001.775045) can0 7E0#0322000600000000
(1788190001.777644) can0 7E8#0462000680000000
(1788190001.782566) can0 200#020E0205020E00
(1788190001.782774) can0 201#0B017D7827100064
(1788190001.783021) can0 230#F0011A0061000000
(1788190001.783180) can0 231#0100FFFF
(1788190001.785991) can0 210#FFFF30A090006D
(1788190001.786198) can0 4B0#2710271027102710
(1788190001.792499) can0 200#020E0205020E00
(1788190001.792722) can0 201#0B017DB427100064
(1788190001.794117) can0 7DF#02010B0000000000
(1788190001.794584) can0 7E8#03410B2000000000
(1788190001.794796) can0 430#D66200002B0700
(1788190001.800021) can0 210#FFFF30A090006E
(1788190001.800233) can0 4B0#2710271027102710
(1788190001.802494) can0 200#020E0205020E00
(1788190001.802705) can0 201#0B017DB427100064
(1788190001.807529) can0 230#F0011A0061000000
(1788190001.807647) can0 231#0100FFFF
(1788190001.808019) can0 7E0#0322000700000000
(1788190001.809613) can0 7E8#046200077F000000
(1788190001.812511) can0 200#020E0205020E00
(1788190001.812703) can0 201#0B017DB427100064
(1788190001.814013) can0 210#FFFF30A090006F
(1788190001.814216) can0 4B0#2710271027102710
(1788190001.822508) can0 200#020E0205020E00
(1788190001.822700) can0 201#0AFF7D8C27100064
(1788190001.828024) can0 210#FFFF30A0900070
(1788190001.828231) can0 4B0#2710271027102710
(1788190001.832526) can0 200#020E0205020E00
(1788190001.832738) can0 201#0AFF7D8C27100064
(1788190001.832986) can0 230#F0011A0061000000
(1788190001.833146) can0 231#0100FFFF
(1788190001.833377) can0 420#84000000000000
(1788190001.839796) can0 7E0#0322000B00000000
(1788190001.841591) can0 7E8#0462000B20000000
(1788190001.842000) can0 210#FFFF30A0900071
(1788190001.842220) can0 4B0#2710271027102710
(1788190001.842466) can0 200#020E0205020E00
(1788190001.842704) can0 201#0AFF7CD827100064
(1788190001.844077) can0 7DF#0201100000000000
(1788190001.844427) can0 7DF#0201420000000000
(1788190001.844652) can0 430#D66200002B0700
(1788190001.844882) can0 7E0#032217B300000000
(1788190001.845133) can0 7E8#04411000AB000000
(1788190001.852494) can0 200#020E0205020E00
(1788190001.852697) can0 201#0AFF7CD827100064
(1788190001.856046) can0 210#FFFF30A0900072
(1788190001.856235) can0 4B0#2710271027102710
(1788190001.857576) can0 230#F0011A0061000000
(1788190001.857729) can0 231#0100FFFF
(1788190001.862481) can0 200#020E0205020E00
(1788190001.862695) can0 201#0AF87CD827100064
(1788190001.870050) can0 210#FFFF30A0900073
(1788190001.870257) can0 4B0#2710271027102710
(1788190001.872409) can0 7E0#0322000C00000000
(1788190001.872636) can0 200#020E0205020E00
(1788190001.872861) can0 201#0AF87C7427100064
(1788190001.873608) can0 7E8#0562000C0AF80000
(1788190001.882489) can0 200#020E0205020E00
(1788190001.882689) can0 201#0AF87C7427100064
(1788190001.882932) can0 230#F0011A0061000000
(1788190001.883102) can0 231#0100FFFF
(1788190001.884027) can0 210#FFFF30A0900074
(1788190001.884252) can0 4B0#2710271027102710
(1788190001.892482) can0 200#020E0205020E00
(1788190001.892690) can0 201#0AF87C7427100064
(1788190001.894480) can0 7DF#02010B0000000000
(1788190001.894701) can0 430#D76500002B0700
(1788190001.894951) can0 7E8#03410B2000000000
(1788190001.898054) can0 210#FFFF30A0900075
(1788190001.898255) can0 4B0#2710271027102710
(1788190001.902473) can0 200#020E0205020E00
(1788190001.902681) can0 201#0AFE7C7427100064
(1788190001.904855) can0 7E0#0322000D00000000
(1788190001.905576) can0 7E8#0462000D00000000
(1788190001.907482) can0 230#F0011A0061000000
(1788190001.907626) can0 231#0100FFFF
(1788190001.912045) can0 210#FFFF30A0900076
(1788190001.912258) can0 4B0#2710271027102710
(1788190001.912485) can0 200#020E0205020E00
(1788190001.912719) can0 201#0AFE7C7427100064
(1788190001.922482) can0 200#020E0205020E00
(1788190001.922680) can0 201#0AFE7D7827100064
(1788190001.926058) can0 210#FFFF30A0900077
(1788190001.926265) can0 4B0#2710271027102710
(1788190001.932476) can0 200#020E0205020E00
(1788190001.932687) can0 201#0AFE7D7827100064
(1788190001.932930) can0 230#F0011A0061000000
(1788190001.933090) can0 231#0100FFFF
(1788190001.933320) can0 420#84000000000000
(1788190001.938454) can0 7E0#0322000E00000000
(1788190001.940074) can0 210#FFFF30A0900078
(1788190001.940278) can0 4B0#2710271027102710
(1788190001.942454) can0 200#020E0205020E00
(1788190001.942665) can0 201#0AFE7D3C27100064
(1788190001.943717) can0 7DF#0201100000000000
(1788190001.944650) can0 430#CE6800002B0700
(1788190001.945570) can0 7E8#0462000E93000000
(1788190001.952459) can0 200#020E0205020E00
(1788190001.952670) can0 201#0AFB7D3C27100064
(1788190001.954049) can0 210#FFFF30A0900079
(1788190001.954279) can0 4B0#2710271027102710
(1788190001.957493) can0 230#F0011A0061000000
(1788190001.957631) can0 231#0100FFFF
(1788190001.962487) can0 200#020E0205020E00
(1788190001.962691) can0 201#0AFB7D3C27100064
(1788190001.968077) can0 210#FFFF30A090007A
(1788190001.968297) can0 4B0#2710271027102710
(1788190001.970468) can0 7E0#0322000F00000000
(1788190001.972515) can0 200#020E0205020E00
(1788190001.972665) can0 201#0AFB7CC427100064
(1788190001.977625) can0 7E8#0462000F5F000000
(1788190001.982088) can0 210#FFFF30A090007B
(1788190001.982293) can0 4B0#2710271027102710
(1788190001.982520) can0 200#020E0205020E00
(1788190001.982752) can0 201#0AFB7CC427100064
(1788190001.983002) can0 230#F0011A0061000000
(1788190001.983165) can0 231#0100FFFF
(1788190001.992468) can0 200#020E0205020E00
(1788190001.992664) can0 201#0AF77CB027100064
(1788190001.994165) can0 7DF#02010B0000000000
(1788190001.994585) can0 7E8#03410B2000000000
(1788190001.994800) can0 430#C76F00002B0700
(1788190001.996087) can0 210#FFFF30A090007C
(1788190001.996295) can0 4B0#2710271027102710
(1788190002.002435) can0 200#020E0205020E00
(1788190002.002654) can0 201#0AF77CB027100064
(1788190002.002898) can0 7E0#0322001000000000
(1788190002.007496) can0 230#F0011A0061000000
(1788190002.007626) can0 231#0100FFFF
(1788190002.009576) can0 7E8#0562001000A60000
(1788190002.010095) can0 210#FFFF30A090007D
(1788190002.010311) can0 4B0#2710271027102710
(1788190002.012433) can0 200#020E0205020E00
(1788190002.012652) can0 201#0AF77CB027100064
(1788190002.022463) can0 200#020E0205020E00
(1788190002.022661) can0 201#0AF77CB027100064
(1788190002.024103) can0 210#FFFF30A090007E
(1788190002.024323) can0 4B0#2710271027102710
(1788190002.032448) can0 200#020E0205020E00
(1788190002.032650) can0 201#0AF37CB027100064
(1788190002.032899) can0 230#F0011A0061000000
(1788190002.033062) can0 231#0100FFFF
(1788190002.033295) can0 420#84000000000000
(1788190002.036605) can0 7E0#0322001100000000
(1788190002.038108) can0 210#FFFF30A090007F
(1788190002.038324) can0 4B0#2710271027102710
(1788190002.041572) can0 7E8#046200111E000000
(1788190002.042430) can0 200#020E0205020E00
(1788190002.042644) can0 201#0AF37CB027100064
(1788190002.043787) can0 7DF#0201100000000000
(1788190002.044162) can0 7E8#04411000A8000000
(1788190002.044642) can0 430#BE7300002B0700
(1788190002.052122) can0 210#FFFF30A0900080
(1788190002.052331) can0 4B0#2710271027102710
(1788190002.052556) can0 200#020E0205020E00
(1788190002.052792) can0 201#0AF37CB027100064
(1788190002.057457) can0 230#F0011A0061000000
(1788190002.057603) can0 231#0100FFFF
(1788190002.062448) can0 200#020E0205020E00
(1788190002.062640) can0 201#0AF37CB027100064
(1788190002.066156) can0 210#FFFF30A0900081
(1788190002.066329) can0 4B0#2710271027102710
(1788190002.069155) can0 7E0#0322001300000000
(1788190002.072452) can0 200#020E0205020E00
(1788190002.072654) can0 201#0AF87CB027100064
(1788190002.073563) can0 7E8#0462001301000000
(1788190002.080161) can0 210#FFFF30A0900082
(1788190002.080334) can0 4B0#2710271027102710
(1788190002.082432) can0 200#020E0205020E00
(1788190002.082644) can0 201#0AF87CB027100064
(1788190002.082878) can0 230#F0011A0061000000
(1788190002.083049) can0 231#0100FFFF
(1788190002.092448) can0 200#020E0205020E00
(1788190002.092645) can0 201#0AF87D6427100064
(1788190002.094138) can0 210#FFFF30A0900083
(1788190002.094344) can0 4B0#2710271027102710
(1788190002.094621) can0 430#BC7400002B0700
(1788190002.094862) can0 7DF#02010B0000000000
(1788190002.095255) can0 7E8#03410B2000000000
(1788190002.100881) can0 7E0#0322001C00000000
(1788190002.102416) can0 200#020E0205020E00
(1788190002.102633) can0 201#0AF87D6427100064
(1788190002.105567) can0 7E8#0462001C0A000000
(1788190002.107450) can0 230#F0011A0061000000
(1788190002.107587) can0 231#0100FFFF
(1788190002.108156) can0 210#FFFF30A0900084
(1788190002.108367) can0 4B0#2710271027102710
(1788190002.112438) can0 200#020E0205020E00
(1788190002.112639) can0 201#0AF87D6427100064
(1788190002.122159) can0 210#FFFF30A0900085
(1788190002.122363) can0 4B0#2710271027102710
(1788190002.122592) can0 200#020D0204020D00
(1788190002.122829) can0 201#0AFF7DF027100064
(1788190002.132443) can0 200#020D0204020D00
(1788190002.132645) can0 201#0AFF7DF027100064
(1788190002.132899) can0 230#F0011A0061000000
(1788190002.133054) can0 231#0100FFFF
(1788190002.133286) can0 420#84000000000000
(1788190002.134534) can0 7E0#0322001F00000000
(1788190002.136223) can0 210#FFFF30A0900086
(1788190002.136371) can0 4B0#2710271027102710
(1788190002.137625) can0 7E8#0562001F022E0000
(1788190002.142416) can0 200#020E0205020E00
(1788190002.142629) can0 201#0AFF7D8C27100064
(1788190002.144622) can0 430#C27100002B0700
(1788190002.144856) can0 7DF#0201100000000000
(1788190002.145245) can0 7E8#04411000AD000000
(1788190002.150167) can0 210#FFFF30A0900087
(1788190002.150386) can0 4B0#2710271027102710
(1788190002.152502) can0 200#020E0205020E00
(1788190002.152725) can0 201#0AFF7D8C27100064
(1788190002.157441) can0 230#F0011A0061000000
(1788190002.157597) can0 231#0100FFFF
(1788190002.162417) can0 200#020E0205020E00
(1788190002.162623) can0 201#0B037D8C27100064
(1788190002.164231) can0 210#FFFF30A0900088
(1788190002.164380) can0 4B0#2710271027102710
(1788190002.167286) can0 7E0#0322002000000000
(1788190002.169527) can0 7E8#0762002080158011
(1788190002.172425) can0 200#020D0204020D00
(1788190002.172626) can0 201#0B037D5027100064
(1788190002.178210) can0 210#FFFF30A0900089
(1788190002.178398) can0 4B0#2710271027102710
(1788190002.182404) can0 200#020D0204020D00
(1788190002.182615) can0 201#0B037D5027100064
(1788190002.182860) can0 230#F0011A0061000000
(1788190002.183022) can0 231#0100FFFF
(1788190002.192196) can0 210#FFFF30A090008A
(1788190002.192382) can0 4B0#2710271027102710
(1788190002.192608) can0 200#020E0205020E00
(1788190002.192849) can0 201#0B037D5027100064
(1788190002.193774) can0 7DF#02010B0000000000
(1788190002.194159) can0 7E8#03410B2000000000
(1788190002.194626) can0 430#C37200002B0700
(1788190002.199591) can0 7E0#0322002100000000
(1788190002.201536) can0 7E8#0562002100000000
(1788190002.202387) can0 200#020E0205020E00
(1788190002.202606) can0 201#0AFE7D5027100064
(1788190002.206220) can0 210#FFFF30A090008B
(1788190002.206408) can0 4B0#2710271027102710
(1788190002.207448) can0 230#F0011A0061000000
(1788190002.207609) can0 231#0100FFFF
(1788190002.212410) can0 200#020E0205020E00
(1788190002.212616) can0 201#0AFE7D5027100064
(1788190002.220202) can0 210#FFFF30A090008C
(1788190002.220414) can0 4B0#2710271027102710
(1788190002.222425) can0 200#020E0205020E00
(1788190002.222617) can0 201#0AFE7C9C27100064
(1788190002.231654) can0 7E0#0322002C00000000
(1788190002.232378) can0 200#020E0205020E00
(1788190002.232607) can0 201#0AFE7C9C27100064
(1788190002.232850) can0 230#F0011A0061000000
(1788190002.233018) can0 231#0100FFFF
(1788190002.233246) can0 420#84000000000000
(1788190002.233526) can0 7E8#0462002C00000000
(1788190002.234197) can0 210#FFFF30A090008D
(1788190002.234406) can0 4B0#2710271027102710
(1788190002.242389) can0 200#020D0204020D00
(1788190002.242597) can0 201#0B087D6427100064
(1788190002.244303) can0 7DF#0201100000000000
(1788190002.244616) can0 430#C37100002B0700
(1788190002.244851) can0 7E8#04411000AD000000
(1788190002.248224) can0 210#FFFF30A090008E
(1788190002.248412) can0 4B0#2710271027102710
(1788190002.252393) can0 200#020D0204020D00
(1788190002.252597) can0 201#0B087D6427100064
(1788190002.257431) can0 230#F0011A0061000000
(1788190002.257567) can0 231#0100FFFF
(1788190002.262230) can0 210#FFFF30A090008F
(1788190002.262415) can0 200#020D0204020D00
(1788190002.262659) can0 201#0B087D6427100064
(1788190002.262884) can0 4B0#2710271027102710
(1788190002.263939) can0 7E0#0322002E00000000
(1788190002.265544) can0 7E8#0462002E1C000000
