 (1787840381.557323)  can0  7E0   [8]  03 22 00 00 00 00 00 00
 (1787840381.557539)  can0  200   [7]  02 05 01 FF 02 05 00
 (1787840381.557799)  can0  201   [8]  0B 37 7D 78 2D C4 00 64
 (1787840381.559665)  can0  210   [7]  FF FF 30 A0 90 00 75
 (1787840381.559848)  can0  4B0   [8]  2D D2 2D BE 2D CA 2D B7
 (1787840381.560639)  can0  7E8   [8]  07 62 00 00 BE 3F B0 13
 (1787840381.566841)  can0  430   [7]  51 A1 00 00 2A 94 00
 (1787840381.567480)  can0  200   [7]  02 05 01 FF 02 05 00
 (1787840381.567712)  can0  201   [8]  0B 37 7D 78 2D C4 00 64
 (1787840381.567952)  can0  230   [8]  03 00 64 00 62 00 00 00
 (1787840381.568124)  can0  231   [4]  34 00 FF FF
 (1787840381.568359)  can0  420   [7]  83 A9 00 00 00 00 00
 (1787840381.573653)  can0  210   [7]  FF FF 30 A0 90 00 76
 (1787840381.573849)  can0  4B0   [8]  2D D1 2D BF 2D D2 2D BB
 (1787840381.577554)  can0  7DF   [8]  02 01 10 00 00 00 00 00
 (1787840381.577798)  can0  200   [7]  02 05 01 FF 02 05 00
 (1787840381.578022)  can0  201   [8]  0B 37 7D 78 2D C8 00 64
 (1787840381.578260)  can0  7E8   [8]  04 41 10 01 7D 00 00 00
 (1787840381.587540)  can0  200   [7]  02 05 01 FF 02 05 00
 (1787840381.587717)  can0  201   [8]  0B 37 7D 78 2D C8 00 64
 (1787840381.587934)  can0  210   [7]  FF FF 30 A0 90 00 77
 (1787840381.588157)  can0  4B0   [8]  2D CB 2D B2 2D C7 2D AF
 (1787840381.592345)  can0  7E0   [8]  03 22 00 02 00 00 00 00
 (1787840381.592568)  can0  230   [8]  03 00 64 00 62 00 00 00
 (1787840381.592721)  can0  231   [4]  34 00 FF FF
 (1787840381.597501)  can0  200   [7]  02 05 01 FF 02 05 00
 (1787840381.597721)  can0  201   [8]  0B 37 7D 78 2D C8 00 64
 (1787840381.600637)  can0  7E8   [8]  05 62 00 02 00 00 00 00
 (1787840381.601674)  can0  210   [7]  FF FF 30 A0 90 00 78
 (1787840381.601871)  can0  4B0   [8]  2D D2 2D B5 2D DB 2D BB
 (1787840381.607519)  can0  200   [7]  02 06 02 00 02 06 00
 (1787840381.607700)  can0  201   [8]  0B 37 7D 00 2D BE 00 64
 (1787840381.615681)  can0  210   [7]  FF FF 30 A0 90 00 79
 (1787840381.615874)  can0  4B0   [8]  2D C9 2D B8 2D DD 2D BD
 (1787840381.616871)  can0  430   [7]  52 A1 00 00 2A 94 00
 (1787840381.617509)  can0  200   [7]  02 06 02 00 02 06 00
 (1787840381.617742)  can0  201   [8]  0B 31 7D 00 2D BE 00 64
 (1787840381.617953)  can0  230   [8]  03 00 64 00 63 00 00 00
 (1787840381.618127)  can0  231   [4]  34 00 FF FF
 (1787840381.627494)  can0  200   [7]  02 07 02 00 02 07 00
 (1787840381.627701)  can0  201   [8]  0B 31 7C 88 2D C0 00 64
 (1787840381.627958)  can0  7E0   [8]  03 22 00 03 00 00 00 00
 (1787840381.628310)  can0  7DF   [8]  02 01 0B 00 00 00 00 00
 (1787840381.629692)  can0  210   [7]  FF FF 30 A0 90 00 7A
 (1787840381.629889)  can0  4B0   [8]  2D BC 2D B6 2D CF 2D B4
 (1787840381.632619)  can0  7E8   [8]  05 62 00 03 02 00 00 00
 (1787840381.637525)  can0  200   [7]  02 07 02 00 02 07 00
 (1787840381.637702)  can0  201   [8]  0B 31 7C 88 2D C0 00 64
 (1787840381.642497)  can0  230   [8]  03 00 64 00 63 00 00 00
 (1787840381.642643)  can0  231   [4]  34 00 FF FF
 (1787840381.643655)  can0  210   [7]  FF FF 30 A0 90 00 7B
 (1787840381.643882)  can0  4B0   [8]  2D CE 2D B3 2D D8 2D B2
 (1787840381.647488)  can0  200   [7]  02 07 02 00 02 07 00
 (1787840381.647697)  can0  201   [8]  0B 31 7C 88 2D C0 00 64
 (1787840381.657500)  can0  200   [7]  02 06 02 00 02 06 00
 (1787840381.657705)  can0  201   [8]  0B 31 7C 88 2D C0 00 64
 (1787840381.657917)  can0  210   [7]  FF FF 30 A0 90 00 7C
 (1787840381.658140)  can0  4B0   [8]  2D C4 2D AB 2D CE 2D A9
 (1787840381.663821)  can0  7E0   [8]  03 22 00 05 00 00 00 00
 (1787840381.664615)  can0  7E8   [8]  04 62 00 05 83 00 00 00
 (1787840381.666845)  can0  430   [7]  56 9E 00 00 2A 94 00
 (1787840381.667479)  can0  200   [7]  02 06 02 00 02 06 00
 (1787840381.667706)  can0  201   [8]  0B 33 7C 88 2D C0 00 64
 (1787840381.667945)  can0  230   [8]  03 00 64 00 63 00 00 00
 (1787840381.668113)  can0  231   [4]  34 00 FF FF
 (1787840381.668343)  can0  420   [7]  83 AA 00 00 00 00 00
 (1787840381.671699)  can0  210   [7]  FF FF 30 A0 90 00 7D
 (1787840381.671909)  can0  4B0   [8]  2D C6 2D AA 2D DD 2D AF
 (1787840381.677291)  can0  7DF   [8]  02 01 10 00 00 00 00 00
 (1787840381.677505)  can0  200   [7]  02 06 02 00 02 06 00
 (1787840381.677737)  can0  201   [8]  0B 33 7D 28 2D B8 00 64
 (1787840381.677989)  can0  7E8   [8]  04 41 10 01 28 00 00 00
 (1787840381.685737)  can0  210   [7]  FF FF 30 A0 90 00 7E
 (1787840381.685919)  can0  4B0   [8]  2D C1 2D B7 2D D2 2D AF
 (1787840381.687470)  can0  200   [7]  02 06 02 00 02 06 00
 (1787840381.687696)  can0  201   [8]  0B 33 7D 28 2D B8 00 64
 (1787840381.692525)  can0  230   [8]  03 00 64 00 63 00 00 00
 (1787840381.692673)  can0  231   [4]  34 00 FF FF
 (1787840381.697490)  can0  200   [7]  02 06 02 00 02 06 00
 (1787840381.697710)  can0  201   [8]  0B 33 7D 28 2D B8 00 64
 (1787840381.698609)  can0  7E0   [8]  03 22 00 06 00 00 00 00
 (1787840381.699717)  can0  210   [7]  FF FF 30 A0 90 00 7F
 (1787840381.699937)  can0  4B0   [8]  2D C0 2D A4 2D B9 2D AD
 (1787840381.704616)  can0  7E8   [8]  04 62 00 06 80 00 00 00
 (1787840381.707513)  can0  200   [7]  02 06 01 FF 02 06 00
 (1787840381.707699)  can0  201   [8]  0B 39 7D A0 2D BC 00 64
 (1787840381.713747)  can0  210   [7]  FF FF 30 A0 90 00 80
 (1787840381.713936)  can0  4B0   [8]  2D C4 2D A7 2D BE 2D BC
 (1787840381.716835)  can0  430   [7]  56 9D 00 00 2A 94 00
 (1787840381.717458)  can0  200   [7]  02 06 01 FF 02 06 00
 (1787840381.717703)  can0  201   [8]  0B 39 7D A0 2D BC 00 64
 (1787840381.717932)  can0  230   [8]  03 00 64 00 63 00 00 00
 (1787840381.718103)  can0  231   [4]  34 00 FF FF
 (1787840381.727490)  can0  200   [7]  02 07 02 00 02 07 00
 (1787840381.727708)  can0  201   [8]  0B 39 7D 78 2D B5 00 64
 (1787840381.727902)  can0  210   [7]  FF FF 30 A0 90 00 81
 (1787840381.728133)  can0  4B0   [8]  2D AC 2D A8 2D BE 2D B9
 (1787840381.728369)  can0  7DF   [8]  02 01 0B 00 00 00 00 00
 (1787840381.728757)  can0  7E8   [8]  03 41 0B 32 00 00 00 00
 (1787840381.733011)  can0  7E0   [8]  03 22 00 07 00 00 00 00
 (1787840381.736616)  can0  7E8   [8]  04 62 00 07 81 00 00 00
 (1787840381.737501)  can0  200   [7]  02 07 02 00 02 07 00
 (1787840381.737732)  can0  201   [8]  0B 39 7D 78 2D B5 00 64
 (1787840381.741750)  can0  210   [7]  FF FF 30 A0 90 00 82
 (1787840381.741949)  can0  4B0   [8]  2D AF 2D 99 2D CC 2D B2
 (1787840381.742490)  can0  230   [8]  03 00 65 00 63 00 00 00
 (1787840381.742654)  can0  231   [4]  34 00 FF FF
 (1787840381.747476)  can0  200   [7]  02 07 02 00 02 07 00
 (1787840381.747689)  can0  201   [8]  0B 45 7D 78 2D B5 00 64
 (1787840381.755773)  can0  210   [7]  FF FF 30 A0 90 00 83
 (1787840381.755954)  can0  4B0   [8]  2D B4 2D 9D 2D A9 2D AB
 (1787840381.757465)  can0  200   [7]  02 07 02 00 02 07 00
 (1787840381.757709)  can0  201   [8]  0B 45 7D F0 2D A4 00 64
 (1787840381.766896)  can0  430   [7]  56 9B 00 00 2A 94 00
 (1787840381.767471)  can0  200   [7]  02 07 02 00 02 07 00
 (1787840381.767696)  can0  201   [8]  0B 45 7D F0 2D A4 00 64
 (1787840381.767936)  can0  230   [8]  03 00 65 00 63 00 00 00
 (1787840381.768111)  can0  231   [4]  34 00 FF FF
 (1787840381.768348)  can0  420   [7]  83 AB 00 00 00 00 00
 (1787840381.769786)  can0  210   [7]  FF FF 30 A0 90 00 84
 (1787840381.769964)  can0  4B0   [8]  2D C4 2D A4 2D A2 2D 99
 (1787840381.773107)  can0  7E0   [8]  03 22 00 0B 00 00 00 00
 (1787840381.776594)  can0  7E8   [8]  04 62 00 0B 32 00 00 00
 (1787840381.777470)  can0  7DF   [8]  02 01 10 00 00 00 00 00
 (1787840381.777712)  can0  200   [7]  02 07 02 00 02 07 00
 (1787840381.777921)  can0  201   [8]  0B 45 7D F0 2D B4 00 64
 (1787840381.778165)  can0  7E8   [8]  04 41 10 01 3C 00 00 00
 (1787840381.783778)  can0  210   [7]  FF FF 30 A0 90 00 85
 (1787840381.783960)  can0  4B0   [8]  2D B5 2D A4 2D 94 2D 9A
 (1787840381.787476)  can0  200   [7]  02 07 02 00 02 07 00
 (1787840381.787715)  can0  201   [8]  0B 45 7D F0 2D B4 00 64
 (1787840381.792495)  can0  230   [8]  03 00 64 00 63 00 00 00
 (1787840381.792641)  can0  231   [4]  34 00 FF FF
 (1787840381.797480)  can0  200   [7]  02 07 02 00 02 07 00
 (1787840381.797714)  can0  201   [8]  0B 45 7D F0 2D B4 00 64
 (1787840381.797919)  can0  210   [7]  FF FF 30 A0 90 00 86
 (1787840381.798133)  can0  4B0   [8]  2D AF 2D 95 2D B1 2D 91
 (1787840381.807490)  can0  200   [7]  02 06 02 00 02 06 00
 (1787840381.807687)  can0  201   [8]  0B 45 7D 00 2D A2 00 64
 (1787840381.807923)  can0  7E0   [8]  03 22 00 0C 00 00 00 00
 (1787840381.808581)  can0  7E8   [8]  05 62 00 0C 0B 45 00 00
 (1787840381.811803)  can0  210   [7]  FF FF 30 A0 90 00 87
 (1787840381.811991)  can0  4B0   [8]  2D B7 2D 90 2D BC 2D 97
 (1787840381.816852)  can0  430   [7]  56 9F 00 00 2A 94 00
 (1787840381.817461)  can0  200   [7]  02 06 02 00 02 06 00
 (1787840381.817699)  can0  201   [8]  0B 45 7D 00 2D A2 00 64
 (1787840381.817923)  can0  230   [8]  03 00 64 00 63 00 00 00
 (1787840381.818103)  can0  231   [4]  34 00 FF FF
 (1787840381.825805)  can0  210   [7]  FF FF 30 A0 90 00 88
 (1787840381.826002)  can0  4B0   [8]  2D BF 2D 9C 2D 89 2D A7
 (1787840381.827465)  can0  200   [7]  02 07 02 00 02 07 00
 (1787840381.827671)  can0  201   [8]  0B 4C 7D 8C 2D A3 00 64
 (1787840381.827913)  can0  7DF   [8]  02 01 0B 00 00 00 00 00
 (1787840381.828335)  can0  7E8   [8]  03 41 0B 33 00 00 00 00
 (1787840381.837468)  can0  200   [7]  02 07 02 00 02 07 00
 (1787840381.837716)  can0  201   [8]  0B 4C 7D 8C 2D A3 00 64
 (1787840381.839817)  can0  210   [7]  FF FF 30 A0 90 00 89
 (1787840381.840032)  can0  4B0   [8]  2D B7 2D 8E 2D A3 2D 9B
 (1787840381.842501)  can0  230   [8]  03 00 64 00 63 00 00 00
 (1787840381.842625)  can0  231   [4]  34 00 FF FF
 (1787840381.844081)  can0  7E0   [8]  03 22 00 0D 00 00 00 00
 (1787840381.847472)  can0  200   [7]  02 07 02 00 02 07 00
 (1787840381.847670)  can0  201   [8]  0B 4C 7D 8C 2D A3 00 64
 (1787840381.848570)  can0  7E8   [8]  04 62 00 0D 11 00 00 00
 (1787840381.853805)  can0  210   [7]  FF FF 30 A0 90 00 8A
 (1787840381.854006)  can0  4B0   [8]  2D B1 2D 9E 2D 9B 2D 9C
 (1787840381.857457)  can0  200   [7]  02 07 02 01 02 07 00
 (1787840381.857696)  can0  201   [8]  0B 4C 7D 8C 2D A2 00 64
 (1787840381.866832)  can0  430   [7]  54 A0 00 00 2A 94 00
 (1787840381.867457)  can0  200   [7]  02 07 02 01 02 07 00
 (1787840381.867679)  can0  201   [8]  0B 45 7D 8C 2D A2 00 64
 (1787840381.867895)  can0  210   [7]  FF FF 30 A0 90 00 8B
 (1787840381.868158)  can0  230   [8]  03 00 64 00 63 00 00 00
 (1787840381.868313)  can0  231   [4]  34 00 FF FF
 (1787840381.868541)  can0  420   [7]  83 AD 00 00 00 00 00
 (1787840381.868765)  can0  4B0   [8]  2D A6 2D 84 2D 93 2D 95
 (1787840381.877471)  can0  200   [7]  02 08 02 01 02 08 00
 (1787840381.877676)  can0  201   [8]  0B 45 7C 74 2D 95 00 64
 (1787840381.878156)  can0  7DF   [8]  02 01 10 00 00 00 00 00
 (1787840381.878529)  can0  7DF   [8]  02 01 42 00 00 00 00 00
 (1787840381.878773)  can0  7E8   [8]  04 41 10 01 4A 00 00 00
 (1787840381.879417)  can0  7E0   [8]  03 22 00 0E 00 00 00 00
 (1787840381.880589)  can0  7E8   [8]  04 62 00 0E 85 00 00 00
 (1787840381.881810)  can0  210   [7]  FF FF 30 A0 90 00 8C
 (1787840381.882016)  can0  4B0   [8]  2D 93 2D 85 2D B1 2D 94
 (1787840381.887540)  can0  200   [7]  02 08 02 01 02 08 00
 (1787840381.887685)  can0  201   [8]  0B 45 7C 74 2D 95 00 64
 (1787840381.892491)  can0  230   [8]  03 00 64 00 63 00 00 00
 (1787840381.892633)  can0  231   [4]  34 00 FF FF
 (1787840381.895846)  can0  210   [7]  FF FF 30 A0 90 00 8D
 (1787840381.896041)  can0  4B0   [8]  2D 9F 2D 7E 2D B7 2D 80
 (1787840381.897471)  can0  200   [7]  02 08 02 01 02 08 00
 (1787840381.897718)  can0  201   [8]  0B 45 7C 74 2D 95 00 64
 (1787840381.907492)  can0  200   [7]  02 07 02 01 02 07 00
 (1787840381.907669)  can0  201   [8]  0B 45 7C 74 2D 8E 00 64
 (1787840381.909846)  can0  210   [7]  FF FF 30 A0 90 00 8E
 (1787840381.910055)  can0  4B0   [8]  2D A4 2D 90 2D 83 2D 74
 (1787840381.913835)  can0  7E0   [8]  03 22 00 0F 00 00 00 00
 (1787840381.916824)  can0  430   [7]  54 9F 00 00 2A 94 00
 (1787840381.917470)  can0  200   [7]  02 07 02 01 02 07 00
 (1787840381.917714)  can0  201   [8]  0B 49 7C 74 2D 8E 00 64
 (1787840381.917944)  can0  230   [8]  03 00 64 00 63 00 00 00
 (1787840381.918112)  can0  231   [4]  34 00 FF FF
 (1787840381.920612)  can0  7E8   [8]  04 62 00 0F 5F 00 00 00
 (1787840381.923882)  can0  210   [7]  FF FF 30 A0 90 00 8F
 (1787840381.924071)  can0  4B0   [8]  2D A4 2D 90 2D 91 2D 82
 (1787840381.927453)  can0  200   [7]  02 07 02 00 02 07 00
 (1787840381.927670)  can0  201   [8]  0B 49 7D 50 2D 9A 00 64
 (1787840381.927901)  can0  7DF   [8]  02 01 0B 00 00 00 00 00
 (1787840381.928289)  can0  7E8   [8]  03 41 0B 33 00 00 00 00
 (1787840381.937478)  can0  200   [7]  02 07 02 00 02 07 00
 (1787840381.937707)  can0  201   [8]  0B 49 7D 50 2D 9A 00 64
 (1787840381.937887)  can0  210   [7]  FF FF 30 A0 90 00 90
 (1787840381.938122)  can0  4B0   [8]  2D A1 2D 8C 2D 98 2D 93
 (1787840381.942475)  can0  230   [8]  03 00 64 00 63 00 00 00
 (1787840381.942614)  can0  231   [4]  34 00 FF FF
 (1787840381.947501)  can0  200   [7]  02 07 02 00 02 07 00
 (1787840381.947678)  can0  201   [8]  0B 49 7D 50 2D 9A 00 64
 (1787840381.949362)  can0  7E0   [8]  03 22 00 10 00 00 00 00
 (1787840381.951986)  can0  210   [7]  FF FF 30 A0 90 00 91
 (1787840381.952085)  can0  4B0   [8]  2D 9D 2D 88 2D 99 2D 79
 (1787840381.952624)  can0  7E8   [8]  05 62 00 10 01 AC 00 00
 (1787840381.957451)  can0  200   [7]  02 09 02 02 02 09 00
 (1787840381.957694)  can0  201   [8]  0B 4A 7D 64 2D 96 00 64
 (1787840381.965890)  can0  210   [7]  FF FF 30 A0 90 00 92
 (1787840381.966079)  can0  4B0   [8]  2D 95 2D 7C 2D 8F 2D 7D
 (1787840381.966812)  can0  430   [7]  51 9E 00 00 2A 94 00
 (1787840381.967454)  can0  200   [7]  02 09 02 02 02 09 00
 (1787840381.967679)  can0  201   [8]  0B 4A 7D 64 2D 96 00 64
 (1787840381.967915)  can0  230   [8]  03 00 64 00 63 00 00 00
 (1787840381.968083)  can0  231   [4]  34 00 FF FF
 (1787840381.968311)  can0  420   [7]  83 AE 00 00 00 00 00
 (1787840381.977493)  can0  200   [7]  02 09 02 02 02 09 00
 (1787840381.977667)  can0  201   [8]  0B 4A 7D 14 2D 88 00 64
 (1787840381.977908)  can0  7DF   [8]  02 01 10 00 00 00 00 00
 (1787840381.978317)  can0  7E8   [8]  04 41 10 01 74 00 00 00
 (1787840381.979897)  can0  210   [7]  FF FF 30 A0 90 00 93
 (1787840381.980122)  can0  4B0   [8]  2D 89 2D 7E 2D A6 2D 80
 (1787840381.986766)  can0  7E0   [8]  03 22 00 11 00 00 00 00
 (1787840381.987454)  can0  200   [7]  02 09 02 02 02 09 00
 (1787840381.987667)  can0  201   [8]  0B 4A 7D 14 2D 88 00 64
 (1787840381.992512)  can0  230   [8]  03 00 65 00 63 00 00 00
 (1787840381.992617)  can0  231   [4]  34 00 FF FF
 (1787840381.992874)  can0  7E8   [8]  04 62 00 11 1E 00 00 00
 (1787840381.993899)  can0  210   [7]  FF FF 30 A0 90 00 94
 (1787840381.994104)  can0  4B0   [8]  2D 90 2D 74 2D A5 2D 75
 (1787840381.997475)  can0  200   [7]  02 09 02 02 02 09 00
 (1787840381.997690)  can0  201   [8]  0B 4E 7D 14 2D 88 00 64
 (1787840382.007586)  can0  200   [7]  02 09 02 02 02 09 00
 (1787840382.007797)  can0  201   [8]  0B 4E 7D 50 2D 82 00 64
 (1787840382.008007)  can0  210   [7]  FF FF 30 A0 90 00 95
 (1787840382.008239)  can0  4B0   [8]  2D 7F 2D 7A 2D 9A 2D 75
 (1787840382.016835)  can0  430   [7]  51 9F 00 00 2A 94 00
 (1787840382.017443)  can0  200   [7]  02 09 02 02 02 09 00
 (1787840382.017680)  can0  201   [8]  0B 4E 7D 50 2D 82 00 64
 (1787840382.017904)  can0  230   [8]  03 00 64 00 63 00 00 00
 (1787840382.018074)  can0  231   [4]  34 00 FF FF
 (1787840382.021917)  can0  210   [7]  FF FF 30 A0 90 00 96
 (1787840382.022107)  can0  4B0   [8]  2D 96 2D 77 2D 88 2D 71
 (1787840382.022354)  can0  7E0   [8]  03 22 00 13 00 00 00 00
 (1787840382.024597)  can0  7E8   [8]  04 62 00 13 01 00 00 00
 (1787840382.027445)  can0  200   [7]  02 09 02 01 02 09 00
 (1787840382.027660)  can0  201   [8]  0B 4E 7D 50 2D 86 00 64
 (1787840382.027899)  can0  7DF   [8]  02 01 0B 00 00 00 00 00
 (1787840382.028560)  can0  7E8   [8]  03 41 0B 35 00 00 00 00
 (1787840382.035929)  can0  210   [7]  FF FF 30 A0 90 00 97
 (1787840382.036128)  can0  4B0   [8]  2D 85 2D 73 2D 85 2D 7A
 (1787840382.037500)  can0  200   [7]  02 09 02 01 02 09 00
 (1787840382.037704)  can0  201   [8]  0B 57 7D 50 2D 86 00 64
 (1787840382.042486)  can0  230   [8]  03 00 65 00 63 00 00 00
 (1787840382.042604)  can0  231   [4]  34 00 FF FF
 (1787840382.047448)  can0  200   [7]  02 09 02 01 02 09 00
 (1787840382.047652)  can0  201   [8]  0B 57 7D 50 2D 86 00 64
 (1787840382.049942)  can0  210   [7]  FF FF 30 A0 90 00 98
 (1787840382.050148)  can0  4B0   [8]  2D 7F 2D 6D 2D 77 2D 71
 (1787840382.057192)  can0  7E0   [8]  03 22 00 1C 00 00 00 00
 (1787840382.057484)  can0  200   [7]  02 09 02 01 02 09 00
 (1787840382.057715)  can0  201   [8]  0B 57 7D B4 2D 7C 00 64
 (1787840382.063939)  can0  210   [7]  FF FF 30 A0 90 00 99
 (1787840382.064137)  can0  4B0   [8]  2D 82 2D 66 2D 7A 2D 6E
 (1787840382.064571)  can0  7E8   [8]  04 62 00 1C 0A 00 00 00
 (1787840382.066877)  can0  430   [7]  56 A0 00 00 2A 94 00
 (1787840382.067466)  can0  200   [7]  02 09 02 01 02 09 00
 (1787840382.067667)  can0  201   [8]  0B 57 7D B4 2D 7C 00 64
 (1787840382.067907)  can0  230   [8]  03 00 65 00 63 00 00 00
 (1787840382.068068)  can0  231   [4]  34 00 FF FF
 (1787840382.068297)  can0  420   [7]  83 AF 00 00 00 00 00
 (1787840382.068547)  can0  620   [8]  0D 40 12 1E 10 00 01 20
 (1787840382.068788)  can0  630   [8]  84 01 9F 00 00 00 4F 4F
 (1787840382.077450)  can0  200   [7]  02 08 02 01 02 08 00
 (1787840382.077680)  can0  201   [8]  0B 62 7E 90 2D 74 00 64
 (1787840382.077935)  can0  210   [7]  FF FF 30 A0 90 00 9A
 (1787840382.078149)  can0  4B0   [8]  2D 7A 2D 67 2D 71 2D 6B
 (1787840382.078476)  can0  7DF   [8]  02 01 10 00 00 00 00 00
 (1787840382.078874)  can0  7E8   [8]  04 41 10 01 8E 00 00 00
 (1787840382.087472)  can0  200   [7]  02 08 02 01 02 08 00
 (1787840382.087664)  can0  201   [8]  0B 62 7E 90 2D 74 00 64
 (1787840382.091954)  can0  210   [7]  FF FF 30 A0 90 00 9B
 (1787840382.092155)  can0  4B0   [8]  2D 71 2D 66 2D 77 2D 68
 (1787840382.092402)  can0  7E0   [8]  03 22 00 1F 00 00 00 00
 (1787840382.092651)  can0  230   [8]  03 00 64 00 63 00 00 00
 (1787840382.092812)  can0  231   [4]  34 00 FF FF
 (1787840382.096582)  can0  7E8   [8]  05 62 00 1F 07 D6 00 00
 (1787840382.097431)  can0  200   [7]  02 08 02 01 02 08 00
 (1787840382.097641)  can0  201   [8]  0B 62 7E 90 2D 74 00 64
 (1787840382.105966)  can0  210   [7]  FF FF 30 A0 90 00 9C
 (1787840382.106168)  can0  4B0   [8]  2D 77 2D 67 2D 6F 2D 53
 (1787840382.107454)  can0  200   [7]  02 09 02 01 02 09 00
 (1787840382.107659)  can0  201   [8]  0B 62 7D DC 2D 6B 00 64
 (1787840382.116838)  can0  430   [7]  54 A1 00 00 2A 94 00
 (1787840382.117462)  can0  200   [7]  02 09 02 01 02 09 00
 (1787840382.117722)  can0  201   [8]  0B 61 7D DC 2D 6B 00 64
 (1787840382.117922)  can0  230   [8]  03 00 65 00 64 00 00 00
 (1787840382.118087)  can0  231   [4]  34 00 FF FF
 (1787840382.119958)  can0  210   [7]  FF FF 30 A0 90 00 9D
 (1787840382.120164)  can0  4B0   [8]  2D 7E 2D 56 2D 64 2D 5F
 (1787840382.126767)  can0  7E0   [8]  03 22 00 20 00 00 00 00
 (1787840382.127427)  can0  200   [7]  02 09 02 01 02 09 00
 (1787840382.127645)  can0  201   [8]  0B 61 7C EC 2D 6A 00 64
 (1787840382.127886)  can0  7DF   [8]  02 01 0B 00 00 00 00 00
 (1787840382.128550)  can0  7E8   [8]  07 62 00 20 80 15 80 11
 (1787840382.134005)  can0  210   [7]  FF FF 30 A0 90 00 9E
 (1787840382.134201)  can0  4B0   [8]  2D 80 2D 4B 2D 8F 2D 48
 (1787840382.137441)  can0  200   [7]  02 09 02 01 02 09 00
 (1787840382.137646)  can0  201   [8]  0B 61 7C EC 2D 6A 00 64
 (1787840382.142470)  can0  230   [8]  03 00 64 00 64 00 00 00
 (1787840382.142595)  can0  231   [4]  34 00 FF FF
 (1787840382.147451)  can0  200   [7]  02 09 02 01 02 09 00
 (1787840382.147642)  can0  201   [8]  0B 61 7C EC 2D 6A 00 64
 (1787840382.147963)  can0  210   [7]  FF FF 30 A0 90 00 9F
 (1787840382.148183)  can0  4B0   [8]  2D 5D 2D 5B 2D 5B 2D 58
 (1787840382.157448)  can0  200   [7]  02 08 02 01 02 08 00
 (1787840382.157637)  can0  201   [8]  0B 64 7C EC 2D 65 00 64
 (1787840382.162150)  can0  210   [7]  FF FF 30 A0 90 00 A0
 (1787840382.162273)  can0  4B0   [8]  2D 54 2D 50 2D 41 2D 4B
 (1787840382.163346)  can0  7E0   [8]  03 22 00 21 00 00 00 00
 (1787840382.166853)  can0  430   [7]  56 9F 00 00 2A 94 00
 (1787840382.167444)  can0  200   [7]  02 08 02 01 02 08 00
 (1787840382.167658)  can0  201   [8]  0B 64 7C EC 2D 65 00 64
 (1787840382.167898)  can0  230   [8]  03 00 64 00 64 00 00 00
 (1787840382.168064)  can0  231   [4]  34 00 FF FF
 (1787840382.168298)  can0  420   [7]  83 B0 00 00 00 00 00
 (1787840382.168567)  can0  7E8   [8]  05 62 00 21 00 00 00 00
 (1787840382.176007)  can0  210   [7]  FF FF 30 A0 90 00 A1
 (1787840382.176195)  can0  4B0   [8]  2D 5B 2D 4F 2D 46 2D 48
 (1787840382.177417)  can0  200   [7]  02 09 02 01 02 09 00
 (1787840382.177641)  can0  201   [8]  0B 64 7D 3C 2D 52 00 64
 (1787840382.178035)  can0  7DF   [8]  02 01 10 00 00 00 00 00
 (1787840382.178516)  can0  7E8   [8]  04 41 10 01 68 00 00 00
 (1787840382.187463)  can0  200   [7]  02 09 02 01 02 09 00
 (1787840382.187638)  can0  201   [8]  0B 64 7D 3C 2D 52 00 64
 (1787840382.190009)  can0  210   [7]  FF FF 30 A0 90 00 A2
 (1787840382.190206)  can0  4B0   [8]  2D 62 2D 4F 2D 79 2D 3D
 (1787840382.192479)  can0  230   [8]  03 00 64 00 64 00 00 00
 (1787840382.192605)  can0  231   [4]  34 00 FF FF
 (1787840382.197459)  can0  200   [7]  02 09 02 01 02 09 00
 (1787840382.197676)  can0  201   [8]  0B 60 7D 3C 2D 52 00 64
 (1787840382.199092)  can0  7E0   [8]  03 22 00 2C 00 00 00 00
 (1787840382.200615)  can0  7E8   [8]  04 62 00 2C 00 00 00 00
 (1787840382.204041)  can0  210   [7]  FF FF 30 A0 90 00 A3
 (1787840382.204218)  can0  4B0   [8]  2D 59 2D 35 2D 73 2D 41
 (1787840382.207429)  can0  200   [7]  02 09 02 01 02 09 00
 (1787840382.207634)  can0  201   [8]  0B 60 7C EC 2D 58 00 64
 (1787840382.216828)  can0  430   [7]  56 9F 00 00 2A 94 00
 (1787840382.217417)  can0  200   [7]  02 09 02 01 02 09 00
 (1787840382.217637)  can0  201   [8]  0B 60 7C EC 2D 58 00 64
 (1787840382.217883)  can0  230   [8]  03 00 64 00 64 00 00 00
 (1787840382.218099)  can0  210   [7]  FF FF 30 A0 90 00 A4
 (1787840382.218269)  can0  231   [4]  34 00 FF FF
 (1787840382.218497)  can0  4B0   [8]  2D 61 2D 3D 2D 4D 2D 41
 (1787840382.227465)  can0  200   [7]  02 08 02 01 02 08 00
 (1787840382.227657)  can0  201   [8]  0B 60 7C B0 2D 4F 00 64
 (1787840382.228312)  can0  7DF   [8]  02 01 0B 00 00 00 00 00
 (1787840382.228686)  can0  7E8   [8]  03 41 0B 35 00 00 00 00
 (1787840382.232065)  can0  210   [7]  FF FF 30 A0 90 00 A5
 (1787840382.232252)  can0  4B0   [8]  2D 3C 2D 3F 2D 45 2D 39
 (1787840382.233559)  can0  7E0   [8]  03 22 00 2E 00 00 00 00
 (1787840382.237437)  can0  200   [7]  02 08 02 01 02 08 00
 (1787840382.237630)  can0  201   [8]  0B 60 7C B0 2D 4F 00 64
 (1787840382.240591)  can0  7E8   [8]  04 62 00 2E 00 00 00 00
 (1787840382.242441)  can0  230   [8]  03 00 64 00 64 00 00 00
 (1787840382.242586)  can0  231   [4]  34 00 FF FF
 (1787840382.246028)  can0  210   [7]  FF FF 30 A0 90 00 A6
 (1787840382.246227)  can0  4B0   [8]  2D 4D 2D 3D 2D 43 2D 43
 (1787840382.247533)  can0  200   [7]  02 08 02 01 02 08 00
 (1787840382.247737)  can0  201   [8]  0B 68 7C B0 2D 4F 00 64
 (1787840382.257421)  can0  200   [7]  02 08 02 01 02 08 00
 (1787840382.257631)  can0  201   [8]  0B 68 7D A0 2D 45 00 64
 (1787840382.260038)  can0  210   [7]  FF FF 30 A0 90 00 A7
 (1787840382.260248)  can0  4B0   [8]  2D 46 2D 38 2D 3A 2D 38
 (1787840382.266844)  can0  430   [7]  56 9F 00 00 2A 94 00
 (1787840382.267422)  can0  200   [7]  02 08 02 01 02 08 00
 (1787840382.267638)  can0  201   [8]  0B 68 7D A0 2D 45 00 64
 (1787840382.267890)  can0  230   [8]  03 00 65 00 64 00 00 00
 (1787840382.268057)  can0  231   [4]  34 00 FF FF
 (1787840382.268297)  can0  420   [7]  83 B1 00 00 00 00 00
 (1787840382.269938)  can0  7E0   [8]  03 22 00 30 00 00 00 00
 (1787840382.272583)  can0  7E8   [8]  04 62 00 30 FF 00 00 00
 (1787840382.274047)  can0  210   [7]  FF FF 30 A0 90 00 A8
 (1787840382.274257)  can0  4B0   [8]  2D 35 2D 2F 2D 48 2D 3C
 (1787840382.277401)  can0  200   [7]  02 08 02 01 02 08 00
 (1787840382.277631)  can0  201   [8]  0B 68 7D DC 2D 3F 00 64
 (1787840382.278498)  can0  7DF   [8]  02 01 10 00 00 00 00 00
 (1787840382.278882)  can0  7E8   [8]  04 41 10 01 7D 00 00 00
 (1787840382.287441)  can0  200   [7]  02 08 02 01 02 08 00
 (1787840382.287634)  can0  201   [8]  0B 6B 7D DC 2D 3F 00 64
 (1787840382.288043)  can0  210   [7]  FF FF 30 A0 90 00 A9
 (1787840382.288261)  can0  4B0   [8]  2D 36 2D 32 2D 51 2D 38
 (1787840382.292454)  can0  230   [8]  03 00 65 00 65 00 00 00
 (1787840382.292594)  can0  231   [4]  34 00 FF FF
 (1787840382.297422)  can0  200   [7]  02 08 02 01 02 08 00
 (1787840382.297622)  can0  201   [8]  0B 6B 7D DC 2D 3F 00 64
 (1787840382.302080)  can0  210   [7]  FF FF 30 A0 90 00 AA
 (1787840382.302280)  can0  4B0   [8]  2D 3D 2D 34 2D 40 2D 2D
 (1787840382.304747)  can0  7E0   [8]  03 22 00 3C 00 00 00 00
 (1787840382.307430)  can0  200   [7]  02 09 02 01 02 09 00
 (1787840382.307621)  can0  201   [8]  0B 6B 7D 3C 2D 34 00 64
 (1787840382.312589)  can0  7E8   [8]  05 62 00 3C 18 E1 00 00
 (1787840382.316119)  can0  210   [7]  FF FF 30 A0 90 00 AB
 (1787840382.316294)  can0  4B0   [8]  2D 3A 2D 23 2D 3A 2D 1F
 (1787840382.316807)  can0  430   [7]  54 A3 00 00 2A 94 00
 (1787840382.317426)  can0  200   [7]  02 09 02 01 02 09 00
 (1787840382.317642)  can0  201   [8]  0B 6B 7D 3C 2D 34 00 64
 (1787840382.317882)  can0  230   [8]  03 00 65 00 65 00 00 00
 (1787840382.318051)  can0  231   [4]  34 00 FF FF
 (1787840382.327428)  can0  200   [7]  02 09 02 01 02 09 00
 (1787840382.327650)  can0  201   [8]  0B 61 7C 38 2D 2E 00 64
 (1787840382.327888)  can0  7DF   [8]  02 01 0B 00 00 00 00 00
 (1787840382.328278)  can0  7E8   [8]  03 41 0B 36 00 00 00 00
 (1787840382.330076)  can0  210   [7]  FF FF 30 A0 90 00 AC
 (1787840382.330289)  can0  4B0   [8]  2D 35 2D 1E 2D 3A 2D 0B
 (1787840382.337429)  can0  200   [7]  02 09 02 01 02 09 00
 (1787840382.337643)  can0  201   [8]  0B 61 7C 38 2D 2E 00 64
 (1787840382.339528)  can0  7E0   [8]  03 22 00 40 00 00 00 00
 (1787840382.342443)  can0  230   [8]  03 00 64 00 66 00 00 00
 (1787840382.342573)  can0  231   [4]  34 00 FF FF
 (1787840382.344140)  can0  210   [7]  FF FF 30 A0 90 00 AD
 (1787840382.344300)  can0  4B0   [8]  2D 2D 2D 1F 2D 2D 2D 17
 (1787840382.344540)  can0  7E8   [8]  07 62 00 40 68 00 00 00
 (1787840382.347434)  can0  200   [7]  02 09 02 01 02 09 00
 (1787840382.347632)  can0  201   [8]  0B 61 7C 38 2D 2E 00 64
 (1787840382.357427)  can0  200   [7]  02 09 02 02 02 09 00
 (1787840382.357613)  can0  201   [8]  0B 61 7C 38 2D 26 00 64
 (1787840382.358063)  can0  210   [7]  FF FF 30 A0 90 00 AE
 (1787840382.358290)  can0  4B0   [8]  2D 35 2D 17 2D 2F 2D 17
 (1787840382.366830)  can0  430   [7]  57 A1 00 00 2A 94 00
 (1787840382.367399)  can0  200   [7]  02 09 02 02 02 09 00
 (1787840382.367632)  can0  201   [8]  0B 53 7C 38 2D 26 00 64
 (1787840382.367871)  can0  230   [8]  03 00 65 00 66 00 00 00
 (1787840382.368042)  can0  231   [4]  34 00 FF FF
 (1787840382.368267)  can0  420   [7]  83 B2 00 00 00 00 00
 (1787840382.372105)  can0  210   [7]  FF FF 30 A0 90 00 AF
 (1787840382.372320)  can0  4B0   [8]  2D 22 2D 0C 2D 2B 2D 19
 (1787840382.374704)  can0  7E0   [8]  03 22 00 42 00 00 00 00
 (1787840382.376593)  can0  7E8   [8]  05 62 00 42 35 2C 00 00
 (1787840382.377510)  can0  200   [7]  02 0A 02 02 02 0A 00
 (1787840382.377606)  can0  201   [8]  0B 53 7B E8 2D 17 00 64
 (1787840382.378602)  can0  7DF   [8]  02 01 10 00 00 00 00 00
 (1787840382.379170)  can0  7E8   [8]  04 41 10 01 64 00 00 00
 (1787840382.386125)  can0  210   [7]  FF FF 30 A0 90 00 B0
 (1787840382.386323)  can0  4B0   [8]  2D 25 2D 10 2D 10 2D 0F
 (1787840382.387433)  can0  200   [7]  02 0A 02 02 02 0A 00
 (1787840382.387634)  can0  201   [8]  0B 53 7B E8 2D 17 00 64
 (1787840382.392447)  can0  230   [8]  03 00 65 00 66 00 00 00
 (1787840382.392573)  can0  231   [4]  34 00 FF FF
 (1787840382.397417)  can0  200   [7]  02 0A 02 02 02 0A 00
 (1787840382.397607)  can0  201   [8]  0B 53 7B E8 2D 17 00 64
 (1787840382.400126)  can0  210   [7]  FF FF 30 A0 90 00 B1
 (1787840382.400333)  can0  4B0   [8]  2D 1C 2D 04 2D 0D 2D 03
 (1787840382.407418)  can0  200   [7]  02 0A 02 02 02 0A 00
 (1787840382.407617)  can0  201   [8]  0B 4E 7B 84 2D 1A 00 64
 (1787840382.412527)  can0  7E0   [8]  03 22 00 43 00 00 00 00
 (1787840382.414144)  can0  210   [7]  FF FF 30 A0 90 00 B2
 (1787840382.414341)  can0  4B0   [8]  2D 05 2D 03 2D 1D 2C FF
 (1787840382.416562)  can0  7E8   [8]  05 62 00 43 00 5C 00 00
 (1787840382.416793)  can0  430   [7]  54 A1 00 00 2A 94 00
 (1787840382.417388)  can0  200   [7]  02 0A 02 02 02 0A 00
 (1787840382.417613)  can0  201   [8]  0B 4E 7B 84 2D 1A 00 64
 (1787840382.417866)  can0  230   [8]  03 00 65 00 66 00 00 00
 (1787840382.418026)  can0  231   [4]  34 00 FF FF
 (1787840382.427433)  can0  200   [7]  02 09 02 02 02 09 00
 (1787840382.427626)  can0  201   [8]  0B 4E 7C 9C 2D 04 00 64
 (1787840382.428104)  can0  7DF   [8]  02 01 0B 00 00 00 00 00
 (1787840382.428311)  can0  210   [7]  FF FF 30 A0 90 00 B3
 (1787840382.428540)  can0  4B0   [8]  2D 12 2C FF 2D 20 2C F7
 (1787840382.428785)  can0  7E8   [8]  03 41 0B 37 00 00 00 00
 (1787840382.437435)  can0  200   [7]  02 09 02 02 02 09 00
 (1787840382.437628)  can0  201   [8]  0B 4E 7C 9C 2D 04 00 64
 (1787840382.442184)  can0  210   [7]  FF FF 30 A0 90 00 B4
 (1787840382.442375)  can0  4B0   [8]  2D 0D 2C F3 2D 11 2C F7
 (1787840382.442605)  can0  230   [8]  03 00 65 00 67 00 00 00
 (1787840382.442766)  can0  231   [4]  34 00 FF FF
 (1787840382.447405)  can0  7E0   [8]  03 22 02 00 00 00 00 00
 (1787840382.447622)  can0  200   [7]  02 09 02 02 02 09 00
 (1787840382.447871)  can0  201   [8]  0B 4F 7C 9C 2D 04 00 64
 (1787840382.448599)  can0  7E8   [8]  04 62 02 00 00 00 00 00
 (1787840382.456174)  can0  210   [7]  FF FF 30 A0 90 00 B5
 (1787840382.456377)  can0  4B0   [8]  2C FF 2C EB 2C FB 2C ED
 (1787840382.457428)  can0  200   [7]  02 0A 02 02 02 0A 00
 (1787840382.457632)  can0  201   [8]  0B 4F 7D 14 2D 00 00 64
 (1787840382.466869)  can0  430   [7]  56 A0 00 00 2A 94 00
 (1787840382.467392)  can0  200   [7]  02 0A 02 02 02 0A 00
 (1787840382.467627)  can0  201   [8]  0B 4F 7D 14 2D 00 00 64
 (1787840382.467881)  can0  230   [8]  03 00 64 00 68 00 00 00
 (1787840382.468043)  can0  231   [4]  34 00 FF FF
 (1787840382.468268)  can0  420   [7]  83 B3 00 00 00 00 00
 (1787840382.470190)  can0  210   [7]  FF FF 30 A0 90 00 B6
 (1787840382.470377)  can0  4B0   [8]  2D 01 2C EA 2C F6 2C ED
 (1787840382.477402)  can0  200   [7]  02 09 02 02 02 09 00
 (1787840382.477613)  can0  201   [8]  0B 4F 7D 14 2C F5 00 64
 (1787840382.477867)  can0  7DF   [8]  02 01 10 00 00 00 00 00
 (1787840382.478268)  can0  7E8   [8]  04 41 10 01 4A 00 00 00
 (1787840382.484189)  can0  210   [7]  FF FF 30 A0 90 00 B7
 (1787840382.484385)  can0  4B0   [8]  2C F8 2C ED 2C EC 2C E4
 (1787840382.484635)  can0  7E0   [8]  03 22 02 02 00 00 00 00
 (1787840382.487401)  can0  200   [7]  02 09 02 02 02 09 00
 (1787840382.487604)  can0  201   [8]  0B 51 7D 14 2C F5 00 64
 (1787840382.488577)  can0  7E8   [8]  04 62 02 02 00 00 00 00
 (1787840382.492434)  can0  230   [8]  03 00 65 00 68 00 00 00
 (1787840382.492571)  can0  231   [4]  34 00 FF FF
 (1787840382.497406)  can0  200   [7]  02 09 02 02 02 09 00
 (1787840382.497607)  can0  201   [8]  0B 51 7D 14 2C F5 00 64
 (1787840382.498242)  can0  210   [7]  FF FF 30 A0 90 00 B8
 (1787840382.498393)  can0  4B0   [8]  2C F2 2C E3 2D 02 2C D7
 (1787840382.507414)  can0  200   [7]  02 09 02 02 02 09 00
 (1787840382.507603)  can0  201   [8]  0B 51 7D 28 2C F2 00 64
 (1787840382.512210)  can0  210   [7]  FF FF 30 A0 90 00 B9
 (1787840382.512411)  can0  4B0   [8]  2C FA 2C E0 2C F5 2C DF
 (1787840382.516854)  can0  430   [7]  54 9F 00 00 2A 94 00
 (1787840382.517412)  can0  200   [7]  02 09 02 02 02 09 00
 (1787840382.517627)  can0  201   [8]  0B 51 7D 28 2C F2 00 64
 (1787840382.517863)  can0  230   [8]  03 00 65 00 69 00 00 00
 (1787840382.518021)  can0  231   [4]  34 00 FF FF
 (1787840382.520034)  can0  7E0   [8]  03 22 09 00 00 00 00 00
 (1787840382.520577)  can0  7E8   [8]  05 62 09 00 07 1C 00 00
 (1787840382.526210)  can0  210   [7]  FF FF 30 A0 90 00 BA
 (1787840382.526413)  can0  4B0   [8]  2C E9 2C D8 2C E9 2C C6
 (1787840382.527485)  can0  200   [7]  02 0A 02 02 02 0A 00
 (1787840382.527647)  can0  201   [8]  0B 51 7C 74 2C ED 00 64
 (1787840382.528356)  can0  7DF   [8]  02 01 0B 00 00 00 00 00
 (1787840382.528766)  can0  7E8   [8]  03 41 0B 37 00 00 00 00
 (1787840382.537402)  can0  200   [7]  02 0A 02 02 02 0A 00
 (1787840382.537601)  can0  201   [8]  0B 48 7C 74 2C ED 00 64
 (1787840382.540256)  can0  210   [7]  FF FF 30 A0 90 00 BB
 (1787840382.540414)  can0  4B0   [8]  2C E9 2C D4 2C F3 2C D1
 (1787840382.542433)  can0  230   [8]  03 00 61 00 6A 00 00 00
 (1787840382.542558)  can0  231   [4]  34 00 FF FF
 (1787840382.547417)  can0  200   [7]  02 0A 02 02 02 0A 00
 (1787840382.547596)  can0  201   [8]  0B 48 7C 74 2C ED 00 64
 (1787840382.554237)  can0  210   [7]  FF FF 30 A0 90 00 BC
 (1787840382.554432)  can0  4B0   [8]  2C E1 2C CE 2C D2 2C C2
 (1787840382.554666)  can0  7E0   [8]  03 22 09 68 00 00 00 00
 (1787840382.557423)  can0  200   [7]  02 09 02 02 02 09 00
 (1787840382.557622)  can0  201   [8]  0B 48 7C 4C 2C DE 00 64
 (1787840382.560682)  can0  7E8   [8]  05 62 09 68 00 00 00 00
 (1787840382.566832)  can0  430   [7]  59 9F 00 00 2A 94 00
 (1787840382.567393)  can0  200   [7]  02 09 02 02 02 09 00
 (1787840382.567613)  can0  201   [8]  0B 48 7C 4C 2C DE 00 64
 (1787840382.567853)  can0  230   [8]  03 00 62 00 6A 00 00 00
 (1787840382.568023)  can0  231   [4]  34 00 FF FF
 (1787840382.568239)  can0  210   [7]  FF FF 30 A0 90 00 BD
 (1787840382.568476)  can0  420   [7]  83 B4 00 00 00 00 00
 (1787840382.568706)  can0  4B0   [8]  2C E1 2C CD 2C C8 2C CD
 (1787840382.577402)  can0  200   [7]  02 0A 02 02 02 0A 00
 (1787840382.577631)  can0  201   [8]  0B 41 7C 74 2C D7 00 64
 (1787840382.578486)  can0  7DF   [8]  02 01 10 00 00 00 00 00
 (1787840382.579033)  can0  7E8   [8]  04 41 10 01 B5 00 00 00
 (1787840382.582231)  can0  210   [7]  FF FF 30 A0 90 00 BE
 (1787840382.582448)  can0  4B0   [8]  2C C9 2C C5 2C B9 2C BE
 (1787840382.587469)  can0  200   [7]  02 0A 02 02 02 0A 00
 (1787840382.587582)  can0  201   [8]  0B 41 7C 74 2C D7 00 64
 (1787840382.589864)  can0  7E0   [8]  03 22 09 6E 00 00 00 00
 (1787840382.592432)  can0  230   [8]  03 00 64 00 6B 00 00 00
 (1787840382.592556)  can0  231   [4]  34 00 FF FF
 (1787840382.592817)  can0  7E8   [8]  05 62 09 6E 0A F0 00 00
 (1787840382.596252)  can0  210   [7]  FF FF 30 A0 90 00 BF
 (1787840382.596438)  can0  4B0   [8]  2C CB 2C C1 2C B7 2C B8
 (1787840382.597407)  can0  200   [7]  02 0A 02 02 02 0A 00
 (1787840382.597616)  can0  201   [8]  0B 41 7C 74 2C D7 00 64
 (1787840382.607403)  can0  200   [7]  02 0C 02 03 02 0C 00
 (1787840382.607607)  can0  201   [8]  0B 41 7C 74 2C C6 00 64
 (1787840382.610253)  can0  210   [7]  FF FF 30 A0 90 00 C0
 (1787840382.610460)  can0  4B0   [8]  2C D0 2C B4 2C E6 2C C4
 (1787840382.616826)  can0  430   [7]  64 9C 00 00 2A 94 00
 (1787840382.617379)  can0  200   [7]  02 0C 02 03 02 0C 00
 (1787840382.617600)  can0  201   [8]  0B 3E 7C 74 2C C6 00 64
 (1787840382.617852)  can0  230   [8]  03 00 63 00 6B 00 00 00
 (1787840382.618017)  can0  231   [4]  34 00 FF FF
 (1787840382.624295)  can0  210   [7]  FF FF 30 A0 90 00 C1
 (1787840382.624480)  can0  4B0   [8]  2C B8 2C A9 2C DF 2C BF
 (1787840382.626672)  can0  7E0   [8]  03 22 09 7C 00 00 00 00
 (1787840382.627383)  can0  200   [7]  02 0B 02 03 02 0B 00
 (1787840382.627618)  can0  201   [8]  0B 3E 7C C4 2C C2 00 64
 (1787840382.627853)  can0  7DF   [8]  02 01 0B 00 00 00 00 00
 (1787840382.632516)  can0  7E8   [8]  05 62 09 7C 6E 1C 00 00
 (1787840382.637383)  can0  200   [7]  02 0B 02 03 02 0B 00
 (1787840382.637614)  can0  201   [8]  0B 3E 7C C4 2C C2 00 64
 (1787840382.638278)  can0  210   [7]  FF FF 30 A0 90 00 C2
 (1787840382.638483)  can0  4B0   [8]  2C CB 2C B2 2C B8 2C A7
 (1787840382.642397)  can0  230   [8]  03 00 63 00 6B 00 00 00
 (1787840382.642537)  can0  231   [4]  34 00 FF FF
 (1787840382.647399)  can0  200   [7]  02 0B 02 03 02 0B 00
 (1787840382.647592)  can0  201   [8]  0B 3E 7C C4 2C C2 00 64
 (1787840382.652299)  can0  210   [7]  FF FF 30 A0 90 00 C3
 (1787840382.652496)  can0  4B0   [8]  2C CC 2C B2 2C A6 2C 99
 (1787840382.657380)  can0  200   [7]  02 0C 02 04 02 0C 00
 (1787840382.657603)  can0  201   [8]  0B 37 7C 38 2C BE 00 64
 (1787840382.661706)  can0  7E0   [8]  03 22 09 8E 00 00 00 00
 (1787840382.664525)  can0  7E8   [8]  05 62 09 8E 00 00 00 00
 (1787840382.666271)  can0  210   [7]  FF FF 30 A0 90 00 C4
 (1787840382.666481)  can0  4B0   [8]  2C C4 2C 9C 2C AA 2C A8
 (1787840382.666793)  can0  430   [7]  64 9B 00 00 2A 94 00
 (1787840382.667406)  can0  200   [7]  02 0C 02 04 02 0C 00
 (1787840382.667630)  can0  201   [8]  0B 37 7C 38 2C BE 00 64
 (1787840382.667867)  can0  230   [8]  03 00 64 00 6C 00 00 00
 (1787840382.668037)  can0  231   [4]  34 00 FF FF
 (1787840382.668266)  can0  420   [7]  83 B5 00 00 00 00 00
 (1787840382.677444)  can0  200   [7]  02 0C 02 04 02 0C 00
 (1787840382.677592)  can0  201   [8]  0B 37 7C 74 2C B0 00 64
 (1787840382.678943)  can0  7DF   [8]  02 01 10 00 00 00 00 00
 (1787840382.679340)  can0  7E8   [8]  04 41 10 01 64 00 00 00
 (1787840382.680380)  can0  210   [7]  FF FF 30 A0 90 00 C5
 (1787840382.680487)  can0  4B0   [8]  2C B9 2C A8 2C A7 2C A4
 (1787840382.687380)  can0  200   [7]  02 0C 02 04 02 0C 00
 (1787840382.687598)  can0  201   [8]  0B 37 7C 74 2C B0 00 64
 (1787840382.692424)  can0  230   [8]  03 00 65 00 6D 00 00 00
 (1787840382.692552)  can0  231   [4]  34 00 FF FF
 (1787840382.694304)  can0  210   [7]  FF FF 30 A0 90 00 C6
 (1787840382.694498)  can0  4B0   [8]  2C B5 2C AA 2C A2 2C 9A
 (1787840382.696612)  can0  7E0   [8]  03 22 11 01 00 00 00 00
 (1787840382.697476)  can0  200   [7]  02 0C 02 04 02 0C 00
 (1787840382.697709)  can0  201   [8]  0B 36 7C 74 2C B0 00 64
 (1787840382.704533)  can0  7E8   [8]  04 62 11 01 0B 00 00 00
 (1787840382.707383)  can0  200   [7]  02 0D 02 04 02 0D 00
 (1787840382.707590)  can0  201   [8]  0B 36 7C EC 2C AF 00 64
 (1787840382.708364)  can0  210   [7]  FF FF 30 A0 90 00 C7
 (1787840382.708527)  can0  4B0   [8]  2C B0 2C 93 2C 98 2C 9F
 (1787840382.716830)  can0  430   [7]  5E 9D 00 00 2A 94 00
 (1787840382.717370)  can0  200   [7]  02 0D 02 04 02 0D 00
 (1787840382.717605)  can0  201   [8]  0B 36 7C EC 2C AF 00 64
 (1787840382.717833)  can0  230   [8]  03 00 64 00 6D 00 00 00
 (1787840382.717999)  can0  231   [4]  34 00 FF FF
 (1787840382.722309)  can0  210   [7]  FF FF 30 A0 90 00 C8
 (1787840382.722512)  can0  4B0   [8]  2C AE 2C 97 2C 80 2C 9C
 (1787840382.727295)  can0  7DF   [8]  02 01 0B 00 00 00 00 00
 (1787840382.727521)  can0  200   [7]  02 0D 02 05 02 0D 00
 (1787840382.727742)  can0  201   [8]  0B 36 7C EC 2C A2 00 64
 (1787840382.727984)  can0  7E8   [8]  03 41 0B 38 00 00 00 00
 (1787840382.731559)  can0  7E0   [8]  03 22 11 03 00 00 00 00
 (1787840382.736329)  can0  210   [7]  FF FF 30 A0 90 00 C9
 (1787840382.736531)  can0  4B0   [8]  2C 9F 2C 95 2C 82 2C 94
 (1787840382.736791)  can0  7E8   [8]  04 62 11 03 04 00 00 00
 (1787840382.737396)  can0  200   [7]  02 0D 02 05 02 0D 00
 (1787840382.737610)  can0  201   [8]  0B 47 7C EC 2C A2 00 64
 (1787840382.742424)  can0  230   [8]  03 00 66 00 6E 00 00 00
 (1787840382.742540)  can0  231   [4]  34 00 FF FF
 (1787840382.747383)  can0  200   [7]  02 0D 02 05 02 0D 00
 (1787840382.747587)  can0  201   [8]  0B 47 7C EC 2C A2 00 64
 (1787840382.750350)  can0  210   [7]  FF FF 30 A0 90 00 CA
 (1787840382.750547)  can0  4B0   [8]  2C 99 2C 83 2C 9C 2C 75
 (1787840382.757378)  can0  200   [7]  02 0D 02 05 02 0D 00
 (1787840382.757578)  can0  201   [8]  0B 47 7E 54 2C 9A 00 64
 (1787840382.764354)  can0  210   [7]  FF FF 30 A0 90 00 CB
 (1787840382.764540)  can0  4B0   [8]  2C 99 2C 83 2C 97 2C 79
 (1787840382.765922)  can0  7E0   [8]  03 22 11 04 00 00 00 00
 (1787840382.766824)  can0  430   [7]  54 A2 00 00 2A 94 00
 (1787840382.767445)  can0  200   [7]  02 0D 02 05 02 0D 00
 (1787840382.767597)  can0  201   [8]  0B 47 7E 54 2C 9A 00 64
 (1787840382.767855)  can0  230   [8]  03 00 67 00 6F 00 00 00
 (1787840382.768002)  can0  231   [4]  34 00 FF FF
 (1787840382.768239)  can0  420   [7]  83 B7 00 00 00 00 00
 (1787840382.768521)  can0  7E8   [8]  04 62 11 04 01 00 00 00
 (1787840382.777366)  can0  200   [7]  02 0D 02 04 02 0D 00
 (1787840382.777566)  can0  201   [8]  0B 47 80 0C 2C 8E 00 64
 (1787840382.778046)  can0  7DF   [8]  02 01 10 00 00 00 00 00
 (1787840382.778321)  can0  210   [7]  FF FF 30 A0 90 00 CC
 (1787840382.778545)  can0  4B0   [8]  2C 88 2C 82 2C 8B 2C 85
 (1787840382.778789)  can0  7E8   [8]  04 41 10 01 70 00 00 00
 (1787840382.787388)  can0  200   [7]  02 0D 02 04 02 0D 00
 (1787840382.787595)  can0  201   [8]  0B 5D 80 0C 2C 8E 00 64
 (1787840382.792370)  can0  210   [7]  FF FF 30 A0 90 00 CD
 (1787840382.792572)  can0  230   [8]  03 00 60 00 70 00 00 00
 (1787840382.792741)  can0  231   [4]  34 00 FF FF
 (1787840382.792977)  can0  4B0   [8]  2C 86 2C 72 2C 8B 2C 77
 (1787840382.797364)  can0  200   [7]  02 0D 02 04 02 0D 00
 (1787840382.797572)  can0  201   [8]  0B 5D 80 0C 2C 8E 00 64
 (1787840382.802299)  can0  7E0   [8]  03 22 11 4A 00 00 00 00
 (1787840382.806365)  can0  210   [7]  FF FF 30 A0 90 00 CE
 (1787840382.806571)  can0  4B0   [8]  2C 83 2C 72 2C 7F 2C 70
 (1787840382.807366)  can0  200   [7]  02 0C 02 04 02 0C 00
 (1787840382.807602)  can0  201   [8]  0B 5D 7E B8 2C 7C 00 64
 (1787840382.808468)  can0  7E8   [8]  05 62 11 4A 33 40 00 00
 (1787840382.816832)  can0  430   [7]  48 AA 00 00 2A 94 00
 (1787840382.817364)  can0  200   [7]  02 0C 02 04 02 0C 00
 (1787840382.817593)  can0  201   [8]  0B 5D 7E B8 2C 7C 00 64
 (1787840382.817831)  can0  230   [8]  03 00 68 00 70 00 00 00
 (1787840382.817998)  can0  231   [4]  34 00 FF FF
 (1787840382.820385)  can0  210   [7]  FF FF 30 A0 90 00 CF
 (1787840382.820585)  can0  4B0   [8]  2C 7E 2C 6F 2C 8A 2C 67
 (1787840382.827379)  can0  200   [7]  02 0D 02 04 02 0D 00
 (1787840382.827577)  can0  201   [8]  0B 68 7D DC 2C 76 00 64
 (1787840382.827984)  can0  7DF   [8]  02 01 0B 00 00 00 00 00
 (1787840382.828468)  can0  7E8   [8]  03 41 0B 39 00 00 00 00
 (1787840382.834389)  can0  210   [7]  FF FF 30 A0 90 00 D0
 (1787840382.834588)  can0  4B0   [8]  2C 76 2C 67 2C 85 2C 70
 (1787840382.837240)  can0  7E0   [8]  03 22 11 4D 00 00 00 00
 (1787840382.837461)  can0  200   [7]  02 0D 02 04 02 0D 00
 (1787840382.837720)  can0  201   [8]  0B 68 7D DC 2C 76 00 64
 (1787840382.840560)  can0  7E8   [8]  05 62 11 4D 22 00 00 00
 (1787840382.842415)  can0  230   [8]  03 00 68 00 72 00 00 00
 (1787840382.842521)  can0  231   [4]  34 00 FF FF
 (1787840382.847364)  can0  200   [7]  02 0D 02 04 02 0D 00
 (1787840382.847569)  can0  201   [8]  0B 68 7D DC 2C 76 00 64
 (1787840382.848383)  can0  210   [7]  FF FF 30 A0 90 00 D1
 (1787840382.848591)  can0  4B0   [8]  2C 72 2C 5D 2C 73 2C 5C
 (1787840382.857377)  can0  200   [7]  02 0D 02 04 02 0D 00
 (1787840382.857560)  can0  201   [8]  0B 68 7D DC 2C 6E 00 64
 (1787840382.862399)  can0  210   [7]  FF FF 30 A0 90 00 D2
 (1787840382.862600)  can0  4B0   [8]  2C 6A 2C 5F 2C 69 2C 57
 (1787840382.866810)  can0  430   [7]  48 A9 00 00 2A 94 00
 (1787840382.867343)  can0  200   [7]  02 0D 02 04 02 0D 00
 (1787840382.867573)  can0  201   [8]  0B 71 7D DC 2C 6E 00 64
 (1787840382.867810)  can0  230   [8]  03 00 63 00 73 00 00 00
 (1787840382.867987)  can0  231   [4]  34 00 FF FF
 (1787840382.868206)  can0  420   [7]  83 B7 00 00 00 00 00
 (1787840382.873158)  can0  7E0   [8]  03 22 11 53 00 00 00 00
 (1787840382.876423)  can0  210   [7]  FF FF 30 A0 90 00 D3
 (1787840382.876630)  can0  4B0   [8]  2C 63 2C 51 2C 75 2C 56
 (1787840382.877371)  can0  200   [7]  02 0D 02 04 02 0D 00
 (1787840382.877584)  can0  201   [8]  0B 71 7D B4 2C 64 00 64
 (1787840382.878087)  can0  7DF   [8]  02 01 10 00 00 00 00 00
 (1787840382.878433)  can0  7DF   [8]  02 01 42 00 00 00 00 00
 (1787840382.880480)  can0  7E8   [8]  05 62 11 53 43 9F 00 00
 (1787840382.887373)  can0  200   [7]  02 0D 02 04 02 0D 00
 (1787840382.887566)  can0  201   [8]  0B 71 7D B4 2C 64 00 64
 (1787840382.890415)  can0  210   [7]  FF FF 30 A0 90 00 D4
 (1787840382.890609)  can0  4B0   [8]  2C 5B 2C 4C 2C 61 2C 4E
 (1787840382.892377)  can0  230   [8]  03 00 63 00 74 00 00 00
 (1787840382.892530)  can0  231   [4]  34 00 FF FF
 (1787840382.897342)  can0  200   [7]  02 0D 02 04 02 0D 00
 (1787840382.897554)  can0  201   [8]  0B 71 7D B4 2C 64 00 64
 (1787840382.904444)  can0  210   [7]  FF FF 30 A0 90 00 D5
 (1787840382.904640)  can0  4B0   [8]  2C 56 2C 4A 2C 4C 2C 4B
 (1787840382.907366)  can0  200   [7]  02 0D 02 04 02 0D 00
 (1787840382.907564)  can0  201   [8]  0B 7E 7E B8 2C 53 00 64
 (1787840382.909840)  can0  7E0   [8]  03 22 11 54 00 00 00 00
 (1787840382.912523)  can0  7E8   [8]  05 62 11 54 1D C0 00 00
 (1787840382.916822)  can0  430   [7]  4E A5 00 00 2A 94 00
 (1787840382.917351)  can0  200   [7]  02 0D 02 04 02 0D 00
 (1787840382.917564)  can0  201   [8]  0B 7E 7E B8 2C 53 00 64
 (1787840382.917805)  can0  230   [8]  03 00 64 00 75 00 00 00
 (1787840382.917975)  can0  231   [4]  34 00 FF FF
 (1787840382.918401)  can0  210   [7]  FF FF 30 A0 90 00 D6
 (1787840382.918634)  can0  4B0   [8]  2C 51 2C 43 2C 54 2C 44
 (1787840382.927351)  can0  200   [7]  02 0D 02 04 02 0D 00
 (1787840382.927563)  can0  201   [8]  0B 7E 7E 04 2C 4A 00 64
 (1787840382.927801)  can0  7DF   [8]  02 01 0B 00 00 00 00 00
 (1787840382.928186)  can0  7E8   [8]  03 41 0B 39 00 00 00 00
 (1787840382.932470)  can0  210   [7]  FF FF 30 A0 90 00 D7
 (1787840382.932645)  can0  4B0   [8]  2C 49 2C 3D 2C 52 2C 3D
 (1787840382.937363)  can0  200   [7]  02 0D 02 04 02 0D 00
 (1787840382.937564)  can0  201   [8]  0B 7E 7E 04 2C 4A 00 64
 (1787840382.942384)  can0  230   [8]  03 00 65 00 76 00 00 00
 (1787840382.942512)  can0  231   [4]  34 00 FF FF
 (1787840382.945271)  can0  7E0   [8]  03 22 11 69 00 00 00 00
 (1787840382.946477)  can0  210   [7]  FF FF 30 A0 90 00 D8
 (1787840382.946651)  can0  4B0   [8]  2C 44 2C 3C 2C 3F 2C 3A
 (1787840382.947406)  can0  200   [7]  02 0D 02 04 02 0D 00
 (1787840382.947588)  can0  201   [8]  0B 8B 7E 04 2C 4A 00 64
 (1787840382.952503)  can0  7E8   [8]  05 62 11 69 1D A5 00 00
 (1787840382.957354)  can0  200   [7]  02 0E 02 04 02 0E 00
 (1787840382.957563)  can0  201   [8]  0B 8B 7E 04 2C 40 00 64
 (1787840382.960443)  can0  210   [7]  FF FF 30 A0 90 00 D9
 (1787840382.960669)  can0  4B0   [8]  2C 3D 2C 2D 2C 41 2C 2F
 (1787840382.966844)  can0  430   [7]  51 A4 00 00 2A 94 00
 (1787840382.967345)  can0  200   [7]  02 0E 02 04 02 0E 00
 (1787840382.967571)  can0  201   [8]  0B 8B 7E 04 2C 40 00 64
 (1787840382.967817)  can0  230   [8]  03 00 66 00 78 00 00 00
 (1787840382.967984)  can0  231   [4]  34 00 FF FF
 (1787840382.968211)  can0  420   [7]  83 B8 00 00 00 00 00
 (1787840382.974474)  can0  210   [7]  FF FF 30 A0 90 00 DA
 (1787840382.974667)  can0  4B0   [8]  2C 3B 2C 33 2C 38 2C 2D
 (1787840382.977402)  can0  200   [7]  02 0E 02 04 02 0E 00
 (1787840382.977623)  can0  201   [8]  0B 8B 7E 04 2C 35 00 64
 (1787840382.977868)  can0  7DF   [8]  02 01 10 00 00 00 00 00
 (1787840382.978260)  can0  7E8   [8]  04 41 10 01 59 00 00 00
 (1787840382.981402)  can0  7E0   [8]  03 22 11 73 00 00 00 00
 (1787840382.984486)  can0  7E8   [8]  05 62 11 73 03 16 00 00
 (1787840382.987372)  can0  200   [7]  02 0E 02 04 02 0E 00
 (1787840382.987572)  can0  201   [8]  0B 9A 7E 04 2C 35 00 64
 (1787840382.988469)  can0  210   [7]  FF FF 30 A0 90 00 DB
 (1787840382.988673)  can0  4B0   [8]  2C 3C 2C 24 2C 2A 2C 19
 (1787840382.992390)  can0  230   [8]  03 00 5F 00 7A 00 00 00
 (1787840382.992528)  can0  231   [4]  34 00 FF FF
 (1787840382.997450)  can0  200   [7]  02 0E 02 04 02 0E 00
 (1787840382.997636)  can0  201   [8]  0B 9A 7E 04 2C 35 00 64
 (1787840383.002483)  can0  210   [7]  FF FF 30 A0 90 00 DC
 (1787840383.002695)  can0  4B0   [8]  2C 30 2C 19 2C 3E 2C 20
 (1787840383.007349)  can0  200   [7]  02 0D 02 03 02 0D 00
 (1787840383.007563)  can0  201   [8]  0B 9A 7E 2C 2C 30 00 64
 (1787840383.016131)  can0  7E0   [8]  03 22 11 77 00 00 00 00
 (1787840383.016460)  can0  210   [7]  FF FF 30 A0 90 00 DD
 (1787840383.016687)  can0  4B0   [8]  2C 25 2C 17 2C 17 2C 23
 (1787840383.016915)  can0  430   [7]  51 A8 00 00 2A 94 00
 (1787840383.017446)  can0  200   [7]  02 0D 02 03 02 0D 00
 (1787840383.017679)  can0  201   [8]  0B 9A 7E 2C 2C 30 00 64
 (1787840383.017914)  can0  230   [8]  03 00 60 00 7A 00 00 00
 (1787840383.018073)  can0  231   [4]  34 00 FF FF
 (1787840383.024495)  can0  7E8   [8]  05 62 11 77 16 D0 00 00
 (1787840383.027384)  can0  200   [7]  02 0C 02 03 02 0C 00
 (1787840383.027565)  can0  201   [8]  0B AF 7F D0 2C 1E 00 64
 (1787840383.028201)  can0  7DF   [8]  02 01 0B 00 00 00 00 00
 (1787840383.028582)  can0  7E8   [8]  03 41 0B 38 00 00 00 00
 (1787840383.030504)  can0  210   [7]  FF FF 30 A0 90 00 DE
 (1787840383.030710)  can0  4B0   [8]  2C 26 2C 1C 2C 17 2C 1C
 (1787840383.037426)  can0  200   [7]  02 0C 02 03 02 0C 00
 (1787840383.037600)  can0  201   [8]  0B AF 7F D0 2C 1E 00 64
 (1787840383.042364)  can0  230   [8]  03 00 67 00 7B 00 00 00
 (1787840383.042501)  can0  231   [4]  34 00 FF FF
 (1787840383.044488)  can0  210   [7]  FF FF 30 A0 90 00 DF
 (1787840383.044708)  can0  4B0   [8]  2C 0D 2C 09 2B FF 2C 08
 (1787840383.047324)  can0  200   [7]  02 0C 02 03 02 0C 00
 (1787840383.047554)  can0  201   [8]  0B AF 7F D0 2C 1E 00 64
 (1787840383.051118)  can0  7E0   [8]  03 22 14 10 00 00 00 00
 (1787840383.056514)  can0  7E8   [8]  05 62 14 10 01 90 00 00
 (1787840383.057449)  can0  200   [7]  02 0D 02 03 02 0D 00
 (1787840383.057653)  can0  201   [8]  0B AF 7E A4 2C 0B 00 64
 (1787840383.058518)  can0  210   [7]  FF FF 30 A0 90 00 E0
 (1787840383.058734)  can0  4B0   [8]  2C 11 2C 09 2B F8 2B F9
 (1787840383.066826)  can0  430   [7]  53 A6 00 00 2A 94 00
 (1787840383.067321)  can0  200   [7]  02 0D 02 03 02 0D 00
 (1787840383.067550)  can0  201   [8]  0B BF 7E A4 2C 0B 00 64
 (1787840383.067793)  can0  230   [8]  03 00 69 00 7C 00 00 00
 (1787840383.067962)  can0  231   [4]  34 00 FF FF
 (1787840383.068188)  can0  420   [7]  83 B9 00 00 00 00 00
 (1787840383.068428)  can0  620   [8]  0D 40 12 1E 10 00 01 20
 (1787840383.068676)  can0  630   [8]  84 01 9F 00 00 00 4F 4F
 (1787840383.072528)  can0  210   [7]  FF FF 30 A0 90 00 E1
 (1787840383.072740)  can0  4B0   [8]  2C 0F 2C 07 2C 0B 2C 01
 (1787840383.077330)  can0  200   [7]  02 0E 02 03 02 0E 00
 (1787840383.077539)  can0  201   [8]  0B BF 7E 40 2C 0B 00 64
 (1787840383.078055)  can0  7DF   [8]  02 01 10 00 00 00 00 00
 (1787840383.078614)  can0  7E8   [8]  04 41 10 01 55 00 00 00
 (1787840383.086571)  can0  210   [7]  FF FF 30 A0 90 00 E2
 (1787840383.086751)  can0  4B0   [8]  2B FE 2B FB 2C 1E 2C 0B
 (1787840383.087395)  can0  200   [7]  02 0E 02 03 02 0E 00
 (1787840383.087581)  can0  201   [8]  0B BF 7E 40 2C 0B 00 64
 (1787840383.088367)  can0  7E0   [8]  03 22 16 31 00 00 00 00
 (1787840383.092378)  can0  230   [8]  03 00 62 00 7E 00 00 00
 (1787840383.092515)  can0  231   [4]  34 00 FF FF
 (1787840383.096531)  can0  7E8   [8]  04 62 16 31 01 00 00 00
 (1787840383.097340)  can0  200   [7]  02 0E 02 03 02 0E 00
 (1787840383.097556)  can0  201   [8]  0B BF 7E 40 2C 0B 00 64
 (1787840383.100548)  can0  210   [7]  FF FF 30 A0 90 00 E3
 (1787840383.100751)  can0  4B0   [8]  2B F9 2B F8 2B F7 2B FF
 (1787840383.107337)  can0  200   [7]  02 0C 02 02 02 0C 00
 (1787840383.107548)  can0  201   [8]  0B CF 7F 80 2B FC 00 64
 (1787840383.114625)  can0  210   [7]  FF FF 30 A0 90 00 E4
 (1787840383.114763)  can0  4B0   [8]  2B F2 2B F2 2B F5 2B F5
 (1787840383.116851)  can0  430   [7]  52 A4 00 00 2A 94 00
 (1787840383.117343)  can0  200   [7]  02 0C 02 02 02 0C 00
 (1787840383.117554)  can0  201   [8]  0B CF 7F 80 2B FC 00 64
 (1787840383.117796)  can0  230   [8]  03 00 63 00 7F 00 00 00
 (1787840383.117961)  can0  231   [4]  34 00 FF FF
 (1787840383.123336)  can0  7E0   [8]  03 22 16 78 00 00 00 00
 (1787840383.127343)  can0  200   [7]  02 0C 02 02 02 0C 00
 (1787840383.127541)  can0  201   [8]  0B CF 7E 40 2B F2 00 64
 (1787840383.128461)  can0  7E8   [8]  05 62 16 78 00 00 00 00
 (1787840383.128676)  can0  210   [7]  FF FF 30 A0 90 00 E5
 (1787840383.128906)  can0  4B0   [8]  2B FD 2B EF 2B DE 2B F7
 (1787840383.129146)  can0  7DF   [8]  02 01 0B 00 00 00 00 00
 (1787840383.129533)  can0  7E8   [8]  03 41 0B 38 00 00 00 00
 (1787840383.137367)  can0  200   [7]  02 0C 02 02 02 0C 00
 (1787840383.137545)  can0  201   [8]  0B CF 7E 40 2B F2 00 64
 (1787840383.142360)  can0  230   [8]  03 00 64 00 81 00 00 00
 (1787840383.142543)  can0  210   [7]  FF FF 30 A0 90 00 E6
 (1787840383.142713)  can0  231   [4]  34 00 FF FF
 (1787840383.142949)  can0  4B0   [8]  2B F5 2B E7 2B E0 2B E3
 (1787840383.147360)  can0  200   [7]  02 0C 02 02 02 0C 00
 (1787840383.147550)  can0  201   [8]  0B DA 7E 40 2B F2 00 64
 (1787840383.156590)  can0  210   [7]  FF FF 30 A0 90 00 E7
 (1787840383.156793)  can0  4B0   [8]  2B EC 2B D9 2B DC 2B D9
 (1787840383.157343)  can0  200   [7]  02 0D 02 02 02 0D 00
 (1787840383.157575)  can0  201   [8]  0B DA 7D DC 2B EE 00 64
 (1787840383.159374)  can0  7E0   [8]  03 22 16 81 00 00 00 00
 (1787840383.160510)  can0  7E8   [8]  04 62 16 81 00 00 00 00
 (1787840383.166821)  can0  430   [7]  54 A2 00 00 2A 94 00
 (1787840383.167310)  can0  200   [7]  02 0D 02 02 02 0D 00
 (1787840383.167555)  can0  201   [8]  0B DA 7D DC 2B EE 00 64
 (1787840383.167791)  can0  230   [8]  03 00 65 00 82 00 00 00
 (1787840383.167977)  can0  231   [4]  34 00 FF FF
 (1787840383.168195)  can0  420   [7]  83 BA 00 00 00 00 00
 (1787840383.170624)  can0  210   [7]  FF FF 30 A0 90 00 E8
 (1787840383.170804)  can0  4B0   [8]  2B DC 2B DF 2B D0 2B D3
 (1787840383.177346)  can0  200   [7]  02 0D 02 01 02 0D 00
 (1787840383.177537)  can0  201   [8]  0B DA 7D DC 2B DD 00 64
 (1787840383.177786)  can0  7DF   [8]  02 01 10 00 00 00 00 00
 (1787840383.178205)  can0  7E8   [8]  04 41 10 01 4E 00 00 00
 (1787840383.184590)  can0  210   [7]  FF FF 30 A0 90 00 E9
 (1787840383.184797)  can0  4B0   [8]  2B CE 2B CB 2B DD 2B D4
 (1787840383.187343)  can0  200   [7]  02 0D 02 01 02 0D 00
 (1787840383.187539)  can0  201   [8]  0B DA 7D DC 2B DD 00 64
 (1787840383.192359)  can0  230   [8]  03 00 66 00 82 00 00 00
 (1787840383.192506)  can0  231   [4]  34 00 FF FF
 (1787840383.197372)  can0  200   [7]  02 0D 02 01 02 0D 00
 (1787840383.197534)  can0  201   [8]  0B DA 7D DC 2B DD 00 64
 (1787840383.197797)  can0  7E0   [8]  03 22 16 CD 00 00 00 00
 (1787840383.198632)  can0  210   [7]  FF FF 30 A0 90 00 EA
 (1787840383.198802)  can0  4B0   [8]  2B D1 2B CC 2B D1 2B D7
 (1787840383.200494)  can0  7E8   [8]  05 62 16 CD 00 00 00 00
 (1787840383.207329)  can0  200   [7]  02 0D 02 02 02 0D 00
 (1787840383.207539)  can0  201   [8]  0B DA 7D 00 2B CC 00 64
 (1787840383.212628)  can0  210   [7]  FF FF 30 A0 90 00 EB
 (1787840383.212808)  can0  4B0   [8]  2B D3 2B CB 2B B3 2B D1
 (1787840383.216811)  can0  430   [7]  55 A6 00 00 2A 94 00
 (1787840383.217304)  can0  200   [7]  02 0D 02 02 02 0D 00
 (1787840383.217534)  can0  201   [8]  0B DA 7D 00 2B CC 00 64
 (1787840383.217777)  can0  230   [8]  03 00 5E 00 84 00 00 00
 (1787840383.217945)  can0  231   [4]  34 00 FF FF
 (1787840383.226620)  can0  210   [7]  FF FF 30 A0 90 00 EC
 (1787840383.226814)  can0  4B0   [8]  2B C7 2B C5 2B B3 2B B7
 (1787840383.227340)  can0  200   [7]  02 0C 02 01 02 0C 00
 (1787840383.227565)  can0  201   [8]  0B E6 7D F0 2B CF 00 64
 (1787840383.227928)  can0  7DF   [8]  02 01 0B 00 00 00 00 00
 (1787840383.228540)  can0  7E8   [8]  03 41 0B 37 00 00 00 00
 (1787840383.236003)  can0  7E0   [8]  03 22 16 CE 00 00 00 00
 (1787840383.237345)  can0  200   [7]  02 0C 02 01 02 0C 00
 (1787840383.237530)  can0  201   [8]  0B E6 7D F0 2B CF 00 64
 (1787840383.240491)  can0  7E8   [8]  05 62 16 CE 00 00 00 00
 (1787840383.240674)  can0  210   [7]  FF FF 30 A0 90 00 ED
 (1787840383.240901)  can0  4B0   [8]  2B BF 2B BA 2B C3 2B BE
 (1787840383.242334)  can0  230   [8]  03 00 67 00 85 00 00 00
 (1787840383.242476)  can0  231   [4]  34 00 FF FF
 (1787840383.247318)  can0  200   [7]  02 0C 02 01 02 0C 00
 (1787840383.247528)  can0  201   [8]  0B E6 7D F0 2B CF 00 64
 (1787840383.254671)  can0  210   [7]  FF FF 30 A0 90 00 EE
 (1787840383.254846)  can0  4B0   [8]  2B B9 2B B9 2B C0 2B B7
 (1787840383.257323)  can0  200   [7]  02 0D 02 01 02 0D 00
 (1787840383.257536)  can0  201   [8]  0B E6 7D F0 2B BC 00 64
 (1787840383.266838)  can0  430   [7]  52 A4 00 00 2A 94 00
 (1787840383.267304)  can0  200   [7]  02 0D 02 01 02 0D 00
 (1787840383.267543)  can0  201   [8]  0B EC 7D F0 2B BC 00 64
 (1787840383.267794)  can0  230   [8]  03 00 68 00 86 00 00 00
 (1787840383.267956)  can0  231   [4]  34 00 FF FF
 (1787840383.268183)  can0  420   [7]  83 BB 00 00 00 00 00
 (1787840383.268670)  can0  210   [7]  FF FF 30 A0 90 00 EF
 (1787840383.268864)  can0  4B0   [8]  2B B6 2B B1 2B B2 2B 9E
 (1787840383.271065)  can0  7E0   [8]  03 22 16 CF 00 00 00 00
 (1787840383.272514)  can0  7E8   [8]  05 62 16 CF 0D 36 00 00
 (1787840383.277317)  can0  200   [7]  02 0D 02 00 02 0D 00
 (1787840383.277519)  can0  201   [8]  0B EC 7D 78 2B B3 00 64
 (1787840383.278432)  can0  7DF   [8]  02 01 10 00 00 00 00 00
 (1787840383.278816)  can0  7E8   [8]  04 41 10 02 32 00 00 00
 (1787840383.282655)  can0  210   [7]  FF FF 30 A0 90 00 F0
 (1787840383.282849)  can0  4B0   [8]  2B AC 2B AB 2B AF 2B B0
 (1787840383.287325)  can0  200   [7]  02 0D 02 00 02 0D 00
 (1787840383.287527)  can0  201   [8]  0B EC 7D 78 2B B3 00 64
 (1787840383.292384)  can0  230   [8]  03 00 60 00 86 00 00 00
 (1787840383.292507)  can0  231   [4]  34 00 FF FF
 (1787840383.296692)  can0  210   [7]  FF FF 30 A0 90 00 F1
 (1787840383.296856)  can0  4B0   [8]  2B AE 2B 9F 2B A7 2B 9D
 (1787840383.297313)  can0  200   [7]  02 0D 02 00 02 0D 00
 (1787840383.297543)  can0  201   [8]  0B EC 7D 78 2B B3 00 64
 (1787840383.305813)  can0  7E0   [8]  03 22 16 E8 00 00 00 00
 (1787840383.307407)  can0  200   [7]  02 0E 02 03 02 0E 00
 (1787840383.307613)  can0  201   [8]  0B DB 7C 24 2B A6 00 64
 (1787840383.310721)  can0  210   [7]  FF FF 30 A0 90 00 F2
 (1787840383.310867)  can0  4B0   [8]  2B 9E 2B 9E 2B 99 2B 9E
 (1787840383.312472)  can0  7E8   [8]  05 62 16 E8 54 F2 00 00
 (1787840383.316824)  can0  430   [7]  4D A5 00 00 2A 94 00
 (1787840383.317303)  can0  200   [7]  02 0E 02 03 02 0E 00
 (1787840383.317534)  can0  201   [8]  0B DB 7C 24 2B A6 00 64
 (1787840383.317769)  can0  230   [8]  03 00 63 00 88 00 00 00
 (1787840383.317937)  can0  231   [4]  34 00 FF FF
 (1787840383.324690)  can0  210   [7]  FF FF 30 A0 90 00 F3
 (1787840383.324872)  can0  4B0   [8]  2B 90 2B 97 2B 9E 2B 98
 (1787840383.327260)  can0  7DF   [8]  02 01 0B 00 00 00 00 00
 (1787840383.327470)  can0  200   [7]  02 13 02 06 02 13 00
 (1787840383.327703)  can0  201   [8]  0B DB 7B AC 2B 9E 00 64
 (1787840383.327945)  can0  7E8   [8]  03 41 0B 39 00 00 00 00
 (1787840383.337338)  can0  200   [7]  02 13 02 06 02 13 00
 (1787840383.337513)  can0  201   [8]  0B DB 7B AC 2B 9E 00 64
 (1787840383.338705)  can0  210   [7]  FF FF 30 A0 90 00 F4
 (1787840383.338878)  can0  4B0   [8]  2B 8E 2B 8C 2B 8E 2B 83
 (1787840383.340531)  can0  7E0   [8]  03 22 16 E9 00 00 00 00
 (1787840383.342364)  can0  230   [8]  03 00 63 00 88 00 00 00
 (1787840383.342468)  can0  231   [4]  34 00 FF FF
 (1787840383.344568)  can0  7E8   [8]  05 62 16 E9 00 76 00 00
 (1787840383.347333)  can0  200   [7]  02 13 02 06 02 13 00
 (1787840383.347513)  can0  201   [8]  0B CB 7B AC 2B 9E 00 64
 (1787840383.352685)  can0  210   [7]  FF FF 30 A0 90 00 F5
 (1787840383.352887)  can0  4B0   [8]  2B 82 2B 86 2B 7D 2B 89
 (1787840383.357323)  can0  200   [7]  02 14 02 07 02 14 00
 (1787840383.357513)  can0  201   [8]  0B CB 7B C0 2B 8D 00 64
 (1787840383.366701)  can0  210   [7]  FF FF 30 A0 90 00 F6
 (1787840383.366883)  can0  430   [7]  54 A0 00 00 2A 94 00
 (1787840383.367113)  can0  4B0   [8]  2B 73 2B 7F 2B 88 2B 7F
 (1787840383.367340)  can0  200   [7]  02 14 02 07 02 14 00
 (1787840383.367575)  can0  201   [8]  0B CB 7B C0 2B 8D 00 64
 (1787840383.367825)  can0  230   [8]  03 00 64 00 89 00 00 00
 (1787840383.367987)  can0  231   [4]  34 00 FF FF
 (1787840383.368213)  can0  420   [7]  83 BC 00 00 00 00 00
 (1787840383.377286)  can0  200   [7]  02 15 02 07 02 15 00
 (1787840383.377514)  can0  201   [8]  0B CB 7C C4 2B 79 00 64
 (1787840383.377752)  can0  7E0   [8]  03 22 16 F0 00 00 00 00
 (1787840383.378144)  can0  7DF   [8]  02 01 10 00 00 00 00 00
 (1787840383.380731)  can0  210   [7]  FF FF 30 A0 90 00 F7
 (1787840383.380927)  can0  4B0   [8]  2B 7B 2B 7E 2B 76 2B 77
 (1787840383.384456)  can0  7E8   [8]  05 62 16 F0 03 83 00 00
 (1787840383.387331)  can0  200   [7]  02 15 02 07 02 15 00
 (1787840383.387512)  can0  201   [8]  0B D8 7C C4 2B 79 00 64
 (1787840383.392353)  can0  230   [8]  03 00 66 00 89 00 00 00
 (1787840383.392467)  can0  231   [4]  34 00 FF FF
 (1787840383.394714)  can0  210   [7]  FF FF 30 A0 90 00 F8
 (1787840383.394921)  can0  4B0   [8]  2B 6D 2B 70 2B 7C 2B 7D
 (1787840383.397275)  can0  200   [7]  02 15 02 07 02 15 00
 (1787840383.397490)  can0  201   [8]  0B D8 7C C4 2B 79 00 64
 (1787840383.407325)  can0  200   [7]  02 16 02 08 02 16 00
 (1787840383.407524)  can0  201   [8]  0B D8 7E 04 2B 6E 00 64
 (1787840383.408743)  can0  210   [7]  FF FF 30 A0 90 00 F9
 (1787840383.408949)  can0  4B0   [8]  2B 63 2B 73 2B 65 2B 67
 (1787840383.412793)  can0  7E0   [8]  03 22 17 04 00 00 00 00
 (1787840383.416518)  can0  7E8   [8]  04 62 17 04 00 00 00 00
 (1787840383.416798)  can0  430   [7]  5E 9F 00 00 2A 94 00
 (1787840383.417288)  can0  200   [7]  02 16 02 08 02 16 00
 (1787840383.417512)  can0  201   [8]  0B D8 7E 04 2B 6E 00 64
 (1787840383.417756)  can0  230   [8]  01 00 67 00 8A 00 00 40
 (1787840383.417924)  can0  231   [4]  14 08 FF FF
 (1787840383.422741)  can0  210   [7]  FF FF 30 A0 90 00 FA
 (1787840383.422946)  can0  4B0   [8]  2B 5B 2B 67 2B 71 2B 70
 (1787840383.427301)  can0  200   [7]  02 16 02 08 02 16 00
 (1787840383.427501)  can0  201   [8]  0B E1 7D B4 2B 61 00 64
 (1787840383.427740)  can0  7DF   [8]  02 01 0B 00 00 00 00 00
 (1787840383.428128)  can0  7E8   [8]  03 41 0B 3B 00 00 00 00
 (1787840383.436773)  can0  210   [7]  FF FF 30 A0 90 00 FB
 (1787840383.436947)  can0  4B0   [8]  2B 5C 2B 5D 2B 68 2B 5F
 (1787840383.437309)  can0  200   [7]  02 16 02 08 02 16 00
 (1787840383.437533)  can0  201   [8]  0B E1 7D B4 2B 61 00 64
 (1787840383.442320)  can0  230   [8]  01 00 68 00 8C 00 00 40
 (1787840383.442461)  can0  231   [4]  14 08 FF FF
 (1787840383.447291)  can0  200   [7]  02 16 02 08 02 16 00
 (1787840383.447506)  can0  201   [8]  0B E1 7D B4 2B 61 00 64
 (1787840383.447748)  can0  7E0   [8]  03 22 17 06 00 00 00 00
 (1787840383.448486)  can0  7E8   [8]  04 62 17 06 80 00 00 00
 (1787840383.450760)  can0  210   [7]  FF FF 30 A0 90 00 FC
 (1787840383.450952)  can0  4B0   [8]  2B 4B 2B 5D 2B 49 2B 5C
 (1787840383.457327)  can0  200   [7]  02 17 02 09 02 17 00
 (1787840383.457503)  can0  201   [8]  0B FC 7D B4 2B 5C 00 64
 (1787840383.464758)  can0  210   [7]  FF FF 30 A0 90 00 FD
 (1787840383.464958)  can0  4B0   [8]  2B 44 2B 52 2B 50 2B 55
 (1787840383.466855)  can0  430   [7]  5B 9F 00 00 2A 94 00
 (1787840383.467319)  can0  200   [7]  02 17 02 09 02 17 00
 (1787840383.467521)  can0  201   [8]  0B FC 7D B4 2B 5C 00 64
 (1787840383.467766)  can0  230   [8]  01 00 61 00 8E 00 00 40
 (1787840383.467930)  can0  231   [4]  14 08 FF FF
 (1787840383.468161)  can0  420   [7]  83 BD 00 00 00 00 00
 (1787840383.477301)  can0  200   [7]  02 16 02 07 02 16 00
 (1787840383.477506)  can0  201   [8]  0B FC 7F 1C 2B 4B 00 64
 (1787840383.478051)  can0  7DF   [8]  02 01 10 00 00 00 00 00
 (1787840383.478692)  can0  7E8   [8]  04 41 10 01 BD 00 00 00
 (1787840383.478895)  can0  210   [7]  FF FF 30 A0 90 00 FE
 (1787840383.479126)  can0  4B0   [8]  2B 3D 2B 50 2B 3D 2B 4B
 (1787840383.482298)  can0  7E0   [8]  03 22 17 09 00 00 00 00
 (1787840383.487335)  can0  200   [7]  02 16 02 07 02 16 00
 (1787840383.487511)  can0  201   [8]  0B FC 7F 1C 2B 4B 00 64
 (1787840383.488504)  can0  7E8   [8]  04 62 17 09 00 00 00 00
 (1787840383.492325)  can0  230   [8]  01 00 61 00 8E 00 00 40
 (1787840383.492459)  can0  231   [4]  14 08 FF FF
 (1787840383.492745)  can0  210   [7]  FF FF 30 A0 90 00 FF
 (1787840383.492970)  can0  4B0   [8]  2B 32 2B 4D 2B 35 2B 4B
 (1787840383.497356)  can0  200   [7]  02 16 02 07 02 16 00
 (1787840383.497566)  can0  201   [8]  0C 17 7F 1C 2B 4B 00 64
 (1787840383.506784)  can0  210   [7]  FF FF 30 A0 90 00 00
 (1787840383.506986)  can0  4B0   [8]  2B 35 2B 42 2B 35 2B 44
 (1787840383.507282)  can0  200   [7]  02 14 02 05 02 14 00
 (1787840383.507518)  can0  201   [8]  0C 17 81 38 2B 3F 00 64
 (1787840383.516851)  can0  430   [7]  52 A2 00 00 2A 94 00
 (1787840383.517293)  can0  200   [7]  02 14 02 05 02 14 00
 (1787840383.517526)  can0  201   [8]  0C 17 81 38 2B 3F 00 64
 (1787840383.517752)  can0  230   [8]  01 00 6B 00 90 00 00 40
 (1787840383.517925)  can0  231   [4]  14 08 FF FF
 (1787840383.519798)  can0  7E0   [8]  03 22 17 17 00 00 00 00
 (1787840383.520486)  can0  7E8   [8]  04 62 17 17 00 00 00 00
 (1787840383.520771)  can0  210   [7]  FF FF 30 A0 90 00 01
 (1787840383.520996)  can0  4B0   [8]  2B 1D 2B 3D 2B 23 2B 3F
 (1787840383.527282)  can0  200   [7]  02 17 02 06 02 17 00
 (1787840383.527495)  can0  201   [8]  0C 17 7F 1C 2B 2D 00 64
 (1787840383.527751)  can0  7DF   [8]  02 01 0B 00 00 00 00 00
 (1787840383.528124)  can0  7E8   [8]  03 41 0B 3C 00 00 00 00
 (1787840383.534831)  can0  210   [7]  FF FF 30 A0 90 00 02
 (1787840383.535018)  can0  4B0   [8]  2B 29 2B 37 2B 17 2B 27
 (1787840383.537276)  can0  200   [7]  02 17 02 06 02 17 00
 (1787840383.537484)  can0  201   [8]  0C 20 7F 1C 2B 2D 00 64
 (1787840383.542357)  can0  230   [8]  01 00 64 00 92 00 00 40
 (1787840383.542481)  can0  231   [4]  14 08 FF FF
 (1787840383.547299)  can0  200   [7]  02 17 02 06 02 17 00
 (1787840383.547487)  can0  201   [8]  0C 20 7F 1C 2B 2D 00 64
 (1787840383.548820)  can0  210   [7]  FF FF 30 A0 90 00 03
 (1787840383.549010)  can0  4B0   [8]  2B 18 2B 29 2B 24 2B 3A
 (1787840383.554183)  can0  7E0   [8]  03 22 17 18 00 00 00 00
 (1787840383.557301)  can0  200   [7]  02 15 02 05 02 15 00
 (1787840383.557491)  can0  201   [8]  0C 20 7D B4 2B 30 00 64
 (1787840383.560504)  can0  7E8   [8]  04 62 17 18 01 00 00 00
 (1787840383.562872)  can0  210   [7]  FF FF 30 A0 90 00 04
 (1787840383.563014)  can0  4B0   [8]  2B 12 2B 29 2B 19 2B 23
 (1787840383.566818)  can0  430   [7]  4E A6 00 00 2A 94 00
 (1787840383.567273)  can0  200   [7]  02 15 02 05 02 15 00
 (1787840383.567498)  can0  201   [8]  0C 20 7D B4 2B 30 00 64
 (1787840383.567753)  can0  230   [8]  01 00 65 00 92 00 00 40
 (1787840383.567915)  can0  231   [4]  14 08 FF FF
 (1787840383.568136)  can0  420   [7]  83 BD 00 00 00 00 00
 (1787840383.576846)  can0  210   [7]  FF FF 30 A0 90 00 05
 (1787840383.577043)  can0  4B0   [8]  2B 06 2B 22 2B 0A 2B 18
 (1787840383.577268)  can0  200   [7]  02 14 02 04 02 14 00
 (1787840383.577505)  can0  201   [8]  0C 30 7E F4 2B 1D 00 64
 (1787840383.577822)  can0  7DF   [8]  02 01 10 00 00 00 00 00
 (1787840383.578233)  can0  7E8   [8]  04 41 10 01 A4 00 00 00
 (1787840383.587292)  can0  200   [7]  02 14 02 04 02 14 00
 (1787840383.587493)  can0  201   [8]  0C 30 7E F4 2B 1D 00 64
 (1787840383.590405)  can0  7E0   [8]  03 22 17 46 00 00 00 00
 (1787840383.590863)  can0  210   [7]  FF FF 30 A0 90 00 06
 (1787840383.591076)  can0  4B0   [8]  2B 07 2B 1B 2A F7 2B 20
 (1787840383.592342)  can0  230   [8]  01 00 66 00 94 00 00 40
 (1787840383.592526)  can0  231   [4]  14 08 FF FF
 (1787840383.592731)  can0  7E8   [8]  04 62 17 46 00 00 00 00
 (1787840383.597291)  can0  200   [7]  02 14 02 04 02 14 00
 (1787840383.597484)  can0  201   [8]  0C 30 7E F4 2B 1D 00 64
 (1787840383.604865)  can0  210   [7]  FF FF 30 A0 90 00 07
 (1787840383.605056)  can0  4B0   [8]  2A F0 2B 16 2A E9 2B 0C
 (1787840383.607275)  can0  200   [7]  02 15 02 04 02 15 00
 (1787840383.607479)  can0  201   [8]  0C 30 7E 40 2B 11 00 64
 (1787840383.616820)  can0  430   [7]  4E A6 00 00 2A 94 00
 (1787840383.617263)  can0  200   [7]  02 15 02 04 02 15 00
 (1787840383.617495)  can0  201   [8]  0C 3C 7E 40 2B 11 00 64
 (1787840383.617736)  can0  230   [8]  01 00 5E 00 96 00 00 40
 (1787840383.617899)  can0  231   [4]  14 08 FF FF
 (1787840383.618860)  can0  210   [7]  FF FF 30 A0 90 00 08
 (1787840383.619048)  can0  4B0   [8]  2A F7 2B 0D 2A E4 2B 09
 (1787840383.627282)  can0  200   [7]  02 12 02 03 02 12 00
 (1787840383.627494)  can0  201   [8]  0C 3C 7D F0 2B 02 00 64
 (1787840383.627732)  can0  7E0   [8]  03 22 17 82 00 00 00 00
 (1787840383.628234)  can0  7DF   [8]  02 01 0B 00 00 00 00 00
 (1787840383.632507)  can0  7E8   [8]  05 62 17 82 84 C0 00 00
 (1787840383.632837)  can0  210   [7]  FF FF 30 A0 90 00 09
 (1787840383.633067)  can0  4B0   [8]  2A EB 2B 09 2A DC 2B 14
 (1787840383.637285)  can0  200   [7]  02 12 02 03 02 12 00
 (1787840383.637488)  can0  201   [8]  0C 3C 7D F0 2B 02 00 64
 (1787840383.642308)  can0  230   [8]  01 00 68 00 96 00 00 40
 (1787840383.642441)  can0  231   [4]  14 08 FF FF
 (1787840383.646862)  can0  210   [7]  FF FF 30 A0 90 00 0A
 (1787840383.647059)  can0  4B0   [8]  2A E9 2B 03 2A E3 2A F7
 (1787840383.647283)  can0  200   [7]  02 12 02 03 02 12 00
 (1787840383.647522)  can0  201   [8]  0C 3C 7D F0 2B 02 00 64
 (1787840383.657281)  can0  200   [7]  02 15 02 04 02 15 00
 (1787840383.657477)  can0  201   [8]  0C 3D 7E 04 2A F6 00 64
 (1787840383.660875)  can0  210   [7]  FF FF 30 A0 90 00 0B
 (1787840383.661083)  can0  4B0   [8]  2A DA 2A FF 2A EB 2A F1
 (1787840383.662681)  can0  7E0   [8]  03 22 17 83 00 00 00 00
 (1787840383.664498)  can0  7E8   [8]  05 62 17 83 6E C0 00 00
 (1787840383.666815)  can0  430   [7]  4E A5 00 00 2A 94 00
 (1787840383.667269)  can0  200   [7]  02 15 02 04 02 15 00
 (1787840383.667496)  can0  201   [8]  0C 3D 7E 04 2A F6 00 64
 (1787840383.667738)  can0  230   [8]  01 00 6A 00 97 00 00 40
 (1787840383.667904)  can0  231   [4]  14 08 FF FF
 (1787840383.668137)  can0  420   [7]  83 BE 00 00 00 00 00
 (1787840383.674890)  can0  210   [7]  FF FF 30 A0 90 00 0C
 (1787840383.675079)  can0  4B0   [8]  2A CA 2A F0 2A E4 2A FD
 (1787840383.677245)  can0  200   [7]  02 15 02 04 02 15 00
 (1787840383.677472)  can0  201   [8]  0C 3D 7D 14 2A EC 00 64
 (1787840383.677920)  can0  7DF   [8]  02 01 10 00 00 00 00 00
 (1787840383.678411)  can0  7E8   [8]  04 41 10 01 A8 00 00 00
 (1787840383.687300)  can0  200   [7]  02 15 02 04 02 15 00
 (1787840383.687487)  can0  201   [8]  0C 3F 7D 14 2A EC 00 64
 (1787840383.688898)  can0  210   [7]  FF FF 30 A0 90 00 0D
 (1787840383.689095)  can0  4B0   [8]  2A D4 2A EE 2A B6 2A EC
 (1787840383.692321)  can0  230   [8]  01 00 61 00 99 00 00 40
 (1787840383.692454)  can0  231   [4]  14 08 FF FF
 (1787840383.697281)  can0  200   [7]  02 15 02 04 02 15 00
 (1787840383.697475)  can0  201   [8]  0C 3F 7D 14 2A EC 00 64
 (1787840383.700237)  can0  7E0   [8]  03 22 17 A0 00 00 00 00
 (1787840383.702912)  can0  210   [7]  FF FF 30 A0 90 00 0E
 (1787840383.703108)  can0  4B0   [8]  2A C3 2A EC 2A C2 2A E3
 (1787840383.704429)  can0  7E8   [8]  04 62 17 A0 21 00 00 00
 (1787840383.707266)  can0  200   [7]  02 14 02 03 02 14 00
 (1787840383.707476)  can0  201   [8]  0C 3F 7D 28 2A E1 00 64
 (1787840383.716815)  can0  430   [7]  4E A6 00 00 2A 94 00
 (1787840383.717015)  can0  210   [7]  FF FF 30 A0 90 00 0F
 (1787840383.717240)  can0  4B0   [8]  2A C6 2A E5 2A AE 2A E3
 (1787840383.717464)  can0  200   [7]  02 14 02 03 02 14 00
 (1787840383.717710)  can0  201   [8]  0C 3F 7D 28 2A E1 00 64
 (1787840383.717939)  can0  230   [8]  01 00 63 00 99 00 00 40
 (1787840383.718107)  can0  231   [4]  14 08 FF FF
 (1787840383.727365)  can0  200   [7]  02 14 02 03 02 14 00
 (1787840383.727585)  can0  201   [8]  0C 48 7D DC 2A D5 00 64
 (1787840383.727811)  can0  7DF   [8]  02 01 0B 00 00 00 00 00
 (1787840383.728220)  can0  7E8   [8]  03 41 0B 3D 00 00 00 00
 (1787840383.730920)  can0  210   [7]  FF FF 30 A0 90 00 10
 (1787840383.731125)  can0  4B0   [8]  2A B0 2A DF 2A A0 2A DA
 (1787840383.735300)  can0  7E0   [8]  03 22 17 A6 00 00 00 00
 (1787840383.736438)  can0  7E8   [8]  04 62 17 A6 00 00 00 00
 (1787840383.737257)  can0  200   [7]  02 14 02 03 02 14 00
 (1787840383.737473)  can0  201   [8]  0C 48 7D DC 2A D5 00 64
 (1787840383.742286)  can0  230   [8]  01 00 63 00 9A 00 00 40
 (1787840383.742428)  can0  231   [4]  14 08 FF FF
 (1787840383.744933)  can0  210   [7]  FF FF 30 A0 90 00 11
 (1787840383.745144)  can0  4B0   [8]  2A AF 2A D7 2A A5 2A CC
 (1787840383.747266)  can0  200   [7]  02 14 02 03 02 14 00
 (1787840383.747472)  can0  201   [8]  0C 48 7D DC 2A D5 00 64
 (1787840383.757275)  can0  200   [7]  02 14 02 03 02 14 00
 (1787840383.757468)  can0  201   [8]  0C 48 7D B4 2A C3 00 64
 (1787840383.758909)  can0  210   [7]  FF FF 30 A0 90 00 12
 (1787840383.759129)  can0  4B0   [8]  2A A7 2A D8 2A A1 2A D2
 (1787840383.766814)  can0  430   [7]  4B A8 00 00 2A 94 00
 (1787840383.767249)  can0  200   [7]  02 14 02 03 02 14 00
 (1787840383.767476)  can0  201   [8]  0C 45 7D B4 2A C3 00 64
 (1787840383.767718)  can0  230   [8]  01 00 64 00 9C 00 00 40
 (1787840383.767889)  can0  231   [4]  14 08 FF FF
 (1787840383.768120)  can0  420   [7]  83 BF 00 00 00 00 00
 (1787840383.772865)  can0  7E0   [8]  03 22 17 B0 00 00 00 00
 (1787840383.773063)  can0  210   [7]  FF FF 30 A0 90 00 13
 (1787840383.773283)  can0  4B0   [8]  2A 9E 2A D1 2A 93 2A C9
 (1787840383.776455)  can0  7E8   [8]  04 62 17 B0 0A 00 00 00
 (1787840383.777239)  can0  200   [7]  02 14 02 03 02 14 00
 (1787840383.777464)  can0  201   [8]  0C 45 7C C4 2A BF 00 64
 (1787840383.777709)  can0  7DF   [8]  02 01 10 00 00 00 00 00
 (1787840383.778102)  can0  7E8   [8]  04 41 10 01 A8 00 00 00
 (1787840383.786976)  can0  210   [7]  FF FF 30 A0 90 00 14
 (1787840383.787152)  can0  4B0   [8]  2A 94 2A C1 2A 8F 2A B7
 (1787840383.787373)  can0  200   [7]  02 14 02 03 02 14 00
 (1787840383.787610)  can0  201   [8]  0C 45 7C C4 2A BF 00 64
 (1787840383.792312)  can0  230   [8]  01 00 66 00 9C 00 00 40
 (1787840383.792441)  can0  231   [4]  14 08 FF FF
 (1787840383.797259)  can0  200   [7]  02 14 02 03 02 14 00
 (1787840383.797459)  can0  201   [8]  0C 45 7C C4 2A BF 00 64
 (1787840383.800979)  can0  210   [7]  FF FF 30 A0 90 00 15
 (1787840383.801162)  can0  4B0   [8]  2A 95 2A C5 2A 82 2A C5
 (1787840383.807277)  can0  200   [7]  02 19 02 06 02 19 00
 (1787840383.807476)  can0  201   [8]  0C 41 7C 74 2A AA 00 64
 (1787840383.809343)  can0  7E0   [8]  03 22 17 B1 00 00 00 00
 (1787840383.815000)  can0  210   [7]  FF FF 30 A0 90 00 16
 (1787840383.815167)  can0  4B0   [8]  2A 8B 2A BD 2A 86 2A AC
 (1787840383.816689)  can0  7E8   [8]  04 62 17 B1 10 00 00 00
 (1787840383.816905)  can0  430   [7]  51 A3 00 00 2A 94 00
 (1787840383.817234)  can0  200   [7]  02 19 02 06 02 19 00
 (1787840383.817466)  can0  201   [8]  0C 41 7C 74 2A AA 00 64
 (1787840383.817710)  can0  230   [8]  01 00 67 00 9E 00 00 40
 (1787840383.817879)  can0  231   [4]  14 08 FF FF
 (1787840383.827261)  can0  200   [7]  02 1C 02 09 02 1C 00
 (1787840383.827466)  can0  201   [8]  0C 41 7C B0 2A A4 00 64
 (1787840383.827840)  can0  7DF   [8]  02 01 0B 00 00 00 00 00
 (1787840383.828319)  can0  7E8   [8]  03 41 0B 3D 00 00 00 00
 (1787840383.828943)  can0  210   [7]  FF FF 30 A0 90 00 17
 (1787840383.829173)  can0  4B0   [8]  2A 82 2A B0 2A 6A 2A B5
 (1787840383.837280)  can0  200   [7]  02 1C 02 09 02 1C 00
 (1787840383.837476)  can0  201   [8]  0C 41 7C B0 2A A4 00 64
 (1787840383.842286)  can0  230   [8]  01 00 69 00 9E 00 00 40
 (1787840383.842417)  can0  231   [4]  14 08 FF FF
 (1787840383.842973)  can0  210   [7]  FF FF 30 A0 90 00 18
 (1787840383.843193)  can0  4B0   [8]  2A 77 2A BA 2A 78 2A AE
 (1787840383.844135)  can0  7E0   [8]  03 22 17 B2 00 00 00 00
 (1787840383.847282)  can0  200   [7]  02 1C 02 09 02 1C 00
 (1787840383.847472)  can0  201   [8]  0C 4C 7C B0 2A A4 00 64
 (1787840383.848482)  can0  7E8   [8]  04 62 17 B2 01 00 00 00
 (1787840383.857011)  can0  210   [7]  FF FF 30 A0 90 00 19
 (1787840383.857195)  can0  4B0   [8]  2A 77 2A AD 2A 60 2A 9D
 (1787840383.857416)  can0  200   [7]  02 04 01 F6 02 04 00
 (1787840383.857648)  can0  201   [8]  0C 4C 7D DC 2A 98 00 64
 (1787840383.866819)  can0  430   [7]  52 A2 00 00 2A 94 00
 (1787840383.867263)  can0  200   [7]  02 04 01 F6 02 04 00
 (1787840383.867483)  can0  201   [8]  0C 4C 7D DC 2A 98 00 64
 (1787840383.867744)  can0  230   [8]  01 00 6A 00 9E 00 00 40
 (1787840383.867891)  can0  231   [4]  14 08 FF FF
 (1787840383.868126)  can0  420   [7]  83 C0 00 00 00 00 00
 (1787840383.871024)  can0  210   [7]  FF FF 30 A0 90 00 1A
 (1787840383.871193)  can0  4B0   [8]  2A 6E 2A A7 2A 68 2A 9F
 (1787840383.877234)  can0  7DF   [8]  02 01 10 00 00 00 00 00
 (1787840383.877446)  can0  200   [7]  02 04 01 F6 02 04 00
 (1787840383.877697)  can0  201   [8]  0C 4C 7B C0 2A 8A 00 64
 (1787840383.877917)  can0  7DF   [8]  02 01 42 00 00 00 00 00
 (1787840383.878162)  can0  7E8   [8]  04 41 10 01 C6 00 00 00
 (1787840383.879833)  can0  7E0   [8]  03 22 17 B3 00 00 00 00
 (1787840383.880594)  can0  7E8   [8]  04 62 17 B3 82 00 00 00
 (1787840383.885004)  can0  210   [7]  FF FF 30 A0 90 00 1B
 (1787840383.885210)  can0  4B0   [8]  2A 63 2A 9E 2A 62 2A 94
 (1787840383.887283)  can0  200   [7]  02 04 01 F6 02 04 00
 (1787840383.887463)  can0  201   [8]  0C 31 7B C0 2A 8A 00 64
 (1787840383.892291)  can0  230   [8]  01 00 6C 00 9F 00 00 40
 (1787840383.892424)  can0  231   [4]  14 08 FF FF
 (1787840383.897278)  can0  200   [7]  02 04 01 F6 02 04 00
 (1787840383.897454)  can0  201   [8]  0C 31 7B C0 2A 8A 00 64
 (1787840383.899033)  can0  210   [7]  FF FF 30 A0 90 00 1C
 (1787840383.899207)  can0  4B0   [8]  2A 60 2A 96 2A 5B 2A 94
 (1787840383.907325)  can0  200   [7]  02 08 01 F9 02 08 00
 (1787840383.907528)  can0  201   [8]  0C 31 7A E4 2A 80 00 64
 (1787840383.913044)  can0  210   [7]  FF FF 30 A0 90 00 1D
 (1787840383.913218)  can0  4B0   [8]  2A 4C 2A 94 2A 4F 2A 95
 (1787840383.914552)  can0  7E0   [8]  03 22 17 B5 00 00 00 00
 (1787840383.916825)  can0  430   [7]  52 A3 00 00 2A 94 00
 (1787840383.917234)  can0  200   [7]  02 08 01 F9 02 08 00
 (1787840383.917468)  can0  201   [8]  0C 31 7A E4 2A 80 00 64
 (1787840383.917715)  can0  230   [8]  01 00 61 00 9F 00 00 40
 (1787840383.917881)  can0  231   [4]  14 08 FF FF
 (1787840383.920524)  can0  7E8   [8]  04 62 17 B5 78 00 00 00
 (1787840383.927024)  can0  210   [7]  FF FF 30 A0 90 00 1E
 (1787840383.927235)  can0  4B0   [8]  2A 53 2A 8A 2A 49 2A 82
 (1787840383.927461)  can0  200   [7]  02 0F 02 03 02 10 00
 (1787840383.927687)  can0  201   [8]  0B D4 75 BC 2A 70 00 64
 (1787840383.928007)  can0  7DF   [8]  02 01 0B 00 00 00 00 00
 (1787840383.928455)  can0  7E8   [8]  03 41 0B 3E 00 00 00 00
 (1787840383.937261)  can0  200   [7]  02 0F 02 03 02 10 00
 (1787840383.937460)  can0  201   [8]  0B D4 75 BC 2A 70 00 64
 (1787840383.941051)  can0  210   [7]  FF FF 30 A0 90 00 1F
 (1787840383.941247)  can0  4B0   [8]  2A 4B 2A 85 2A 48 2A 7F
 (1787840383.942279)  can0  230   [8]  01 00 63 00 9E 00 00 40
 (1787840383.942427)  can0  231   [4]  14 08 FF FF
 (1787840383.947260)  can0  200   [7]  02 0F 02 03 02 10 00
 (1787840383.947451)  can0  201   [8]  0B D4 75 BC 2A 70 00 64
 (1787840383.949067)  can0  7E0   [8]  03 22 17 B6 00 00 00 00
 (1787840383.952423)  can0  7E8   [8]  04 62 17 B6 00 00 00 00
 (1787840383.955028)  can0  210   [7]  FF FF 30 A0 90 00 20
 (1787840383.955249)  can0  4B0   [8]  2A 3F 2A 80 2A 41 2A 7A
 (1787840383.957216)  can0  200   [7]  02 12 02 05 02 13 00
 (1787840383.957441)  can0  201   [8]  0B D4 75 BC 2A 68 00 64
 (1787840383.966826)  can0  430   [7]  52 A2 00 00 2A 94 00
 (1787840383.967308)  can0  200   [7]  02 12 02 05 02 13 00
 (1787840383.967529)  can0  201   [8]  0B 9C 75 BC 2A 68 00 64
 (1787840383.967770)  can0  230   [8]  01 00 71 00 9C 00 00 40
 (1787840383.967945)  can0  231   [4]  14 08 FF FF
 (1787840383.968173)  can0  420   [7]  83 C0 00 00 00 00 00
 (1787840383.969048)  can0  210   [7]  FF FF 30 A0 90 00 21
 (1787840383.969260)  can0  4B0   [8]  2A 3D 2A 78 2A 2F 2A 74
 (1787840383.977251)  can0  200   [7]  02 1D 02 0D 02 1D 00
 (1787840383.977446)  can0  201   [8]  0B 9C 78 A0 2A 5A 00 64
 (1787840383.978097)  can0  7DF   [8]  02 01 10 00 00 00 00 00
 (1787840383.978523)  can0  7E8   [8]  04 41 10 02 51 00 00 00
 (1787840383.983074)  can0  210   [7]  FF FF 30 A0 90 00 22
 (1787840383.983260)  can0  4B0   [8]  2A 2A 2A 70 2A 2D 2A 62
 (1787840383.983975)  can0  7E0   [8]  03 22 17 B8 00 00 00 00
 (1787840383.987256)  can0  200   [7]  02 1D 02 0D 02 1D 00
 (1787840383.987452)  can0  201   [8]  0B 9C 78 A0 2A 5A 00 64
 (1787840383.992270)  can0  230   [8]  01 00 71 00 9B 00 00 40
 (1787840383.992413)  can0  231   [4]  14 08 FF FF
 (1787840383.992652)  can0  7E8   [8]  04 62 17 B8 CD 00 00 00
 (1787840383.997100)  can0  210   [7]  FF FF 30 A0 90 00 23
 (1787840383.997262)  can0  200   [7]  02 1D 02 0D 02 1D 00
 (1787840383.997500)  can0  201   [8]  0B 9C 78 A0 2A 5A 00 64
 (1787840383.997761)  can0  4B0   [8]  2A 2E 2A 6E 2A 2C 2A 69
 (1787840384.007247)  can0  200   [7]  02 20 02 0F 02 20 00
 (1787840384.007446)  can0  201   [8]  0B 9B 78 8C 2A 4E 00 64
 (1787840384.011088)  can0  210   [7]  FF FF 30 A0 90 00 24
 (1787840384.011287)  can0  4B0   [8]  2A 24 2A 61 2A 17 2A 56
 (1787840384.016827)  can0  430   [7]  56 9F 00 00 2A 94 00
 (1787840384.017230)  can0  200   [7]  02 20 02 0F 02 20 00
 (1787840384.017454)  can0  201   [8]  0B 9B 78 8C 2A 4E 00 64
 (1787840384.017712)  can0  230   [8]  01 00 7F 00 98 00 00 40
 (1787840384.017875)  can0  231   [4]  14 08 FF FF
 (1787840384.018493)  can0  7E0   [8]  03 22 17 BA 00 00 00 00
 (1787840384.024438)  can0  7E8   [8]  04 62 17 BA 00 00 00 00
 (1787840384.025097)  can0  210   [7]  FF FF 30 A0 90 00 25
 (1787840384.025282)  can0  4B0   [8]  2A 1D 2A 5E 2A 1F 2A 5A
 (1787840384.027279)  can0  200   [7]  02 24 02 12 02 24 00
 (1787840384.027445)  can0  201   [8]  0B 9B 7C EC 2A 42 00 64
 (1787840384.028323)  can0  7DF   [8]  02 01 0B 00 00 00 00 00
 (1787840384.028709)  can0  7E8   [8]  03 41 0B 41 00 00 00 00
 (1787840384.037266)  can0  200   [7]  02 24 02 12 02 24 00
 (1787840384.037439)  can0  201   [8]  0B 9B 7C EC 2A 42 00 64
 (1787840384.039090)  can0  210   [7]  FF FF 30 A0 90 00 26
 (1787840384.039291)  can0  4B0   [8]  2A 16 2A 5C 2A 0B 2A 4D
 (1787840384.042264)  can0  230   [8]  01 00 7F 00 98 00 00 40
 (1787840384.042399)  can0  231   [4]  14 08 FF FF
 (1787840384.047233)  can0  200   [7]  02 24 02 12 02 24 00
 (1787840384.047439)  can0  201   [8]  0B C5 7C EC 2A 42 00 64
 (1787840384.053034)  can0  7E0   [8]  03 22 17 BB 00 00 00 00
 (1787840384.053267)  can0  210   [7]  FF FF 30 A0 90 00 27
 (1787840384.053532)  can0  4B0   [8]  2A 0A 2A 4D 2A 0D 2A 4D
 (1787840384.056539)  can0  7E8   [8]  04 62 17 BB AA 00 00 00
 (1787840384.057230)  can0  200   [7]  02 26 02 12 02 26 00
 (1787840384.057439)  can0  201   [8]  0B C5 80 48 2A 39 00 64
 (1787840384.066816)  can0  430   [7]  54 9F 00 00 2A 94 00
 (1787840384.067077)  can0  210   [7]  FF FF 30 A0 90 00 28
 (1787840384.067292)  can0  200   [7]  02 26 02 12 02 26 00
 (1787840384.067526)  can0  201   [8]  0B C5 80 48 2A 39 00 64
 (1787840384.067763)  can0  230   [8]  01 00 76 00 96 00 00 40
 (1787840384.067933)  can0  231   [4]  14 08 FF FF
 (1787840384.068163)  can0  420   [7]  83 C1 00 00 00 00 00
 (1787840384.068394)  can0  4B0   [8]  2A 05 2A 4D 2A 05 2A 47
 (1787840384.068632)  can0  620   [8]  0D 40 12 1E 10 00 01 20
 (1787840384.068874)  can0  630   [8]  84 01 9F 00 00 00 4F 4F
 (1787840384.077231)  can0  200   [7]  02 1D 02 0A 02 1D 00
 (1787840384.077429)  can0  201   [8]  0B C5 84 30 2A 29 00 64
 (1787840384.077694)  can0  7DF   [8]  02 01 10 00 00 00 00 00
 (1787840384.078062)  can0  7E8   [8]  04 41 10 01 D2 00 00 00
 (1787840384.081103)  can0  210   [7]  FF FF 30 A0 90 00 29
 (1787840384.081321)  can0  4B0   [8]  2A 08 2A 45 29 F5 2A 37
 (1787840384.087270)  can0  200   [7]  02 1D 02 0A 02 1D 00
 (1787840384.087442)  can0  201   [8]  0B F7 84 30 2A 29 00 64
 (1787840384.089759)  can0  7E0   [8]  03 22 17 BC 00 00 00 00
 (1787840384.092284)  can0  230   [8]  01 00 84 00 94 00 00 40
 (1787840384.092417)  can0  231   [4]  14 08 FF FF
 (1787840384.095124)  can0  210   [7]  FF FF 30 A0 90 00 2A
 (1787840384.095321)  can0  4B0   [8]  29 FE 2A 3F 29 FA 2A 36
 (1787840384.096418)  can0  7E8   [8]  04 62 17 BC AD 00 00 00
 (1787840384.097233)  can0  200   [7]  02 1D 02 0A 02 1D 00
 (1787840384.097436)  can0  201   [8]  0B F7 84 30 2A 29 00 64
 (1787840384.107236)  can0  200   [7]  02 20 02 0B 02 20 00
 (1787840384.107448)  can0  201   [8]  0B F7 80 E8 2A 1E 00 64
 (1787840384.109111)  can0  210   [7]  FF FF 30 A0 90 00 2B
 (1787840384.109339)  can0  4B0   [8]  29 F0 2A 3F 29 E8 2A 31
 (1787840384.116885)  can0  430   [7]  54 A4 00 00 2A 94 00
 (1787840384.117230)  can0  200   [7]  02 20 02 0B 02 20 00
 (1787840384.117448)  can0  201   [8]  0C 31 80 E8 2A 1E 00 64
 (1787840384.117725)  can0  230   [8]  01 00 87 00 94 00 00 40
 (1787840384.117858)  can0  231   [4]  14 08 FF FF
 (1787840384.123154)  can0  210   [7]  FF FF 30 A0 90 00 2C
 (1787840384.123351)  can0  4B0   [8]  29 EE 2A 38 29 E3 2A 2A
 (1787840384.124722)  can0  7E0   [8]  03 22 17 BD 00 00 00 00
 (1787840384.127180)  can0  7DF   [8]  02 01 0B 00 00 00 00 00
 (1787840384.127390)  can0  200   [7]  02 18 02 03 02 18 00
 (1787840384.127627)  can0  201   [8]  0C 31 81 88 2A 17 00 64
 (1787840384.128391)  can0  7E8   [8]  04 62 17 BD 3C 00 00 00
 (1787840384.137188)  can0  210   [7]  FF FF 30 A0 90 00 2D
 (1787840384.137339)  can0  200   [7]  02 18 02 03 02 18 00
 (1787840384.137583)  can0  201   [8]  0C 31 81 88 2A 17 00 64
 (1787840384.137821)  can0  4B0   [8]  29 DD 2A 30 29 E7 2A 25
 (1787840384.142253)  can0  230   [8]  01 00 87 00 92 00 00 40
 (1787840384.142388)  can0  231   [4]  14 08 FF FF
 (1787840384.147236)  can0  200   [7]  02 18 02 03 02 18 00
 (1787840384.147445)  can0  201   [8]  0C 31 81 88 2A 17 00 64
 (1787840384.151168)  can0  210   [7]  FF FF 30 A0 90 00 2E
 (1787840384.151358)  can0  4B0   [8]  29 DA 2A 2B 29 CC 2A 21
 (1787840384.157226)  can0  200   [7]  02 18 02 03 02 18 00
 (1787840384.157429)  can0  201   [8]  0C 46 81 88 2A 06 00 64
 (1787840384.164207)  can0  7E0   [8]  03 22 17 BE 00 00 00 00
 (1787840384.165180)  can0  210   [7]  FF FF 30 A0 90 00 2F
 (1787840384.165359)  can0  4B0   [8]  29 DC 2A 27 29 D4 2A 1A
 (1787840384.166819)  can0  430   [7]  52 A3 00 00 2A 94 00
 (1787840384.167207)  can0  200   [7]  02 18 02 03 02 18 00
 (1787840384.167437)  can0  201   [8]  0C 46 81 88 2A 06 00 64
 (1787840384.167679)  can0  230   [8]  01 00 95 00 90 00 00 40
 (1787840384.167849)  can0  231   [4]  14 08 FF FF
 (1787840384.168079)  can0  420   [7]  83 C1 00 00 00 00 00
 (1787840384.168370)  can0  7E8   [8]  05 62 17 BE 00 4C 00 00
 (1787840384.177229)  can0  200   [7]  02 17 02 01 02 17 00
 (1787840384.177428)  can0  201   [8]  0C 46 7E A4 2A 01 00 64
 (1787840384.177703)  can0  7DF   [8]  02 01 10 00 00 00 00 00
 (1787840384.178080)  can0  7E8   [8]  04 41 10 01 B5 00 00 00
 (1787840384.179192)  can0  210   [7]  FF FF 30 A0 90 00 30
 (1787840384.179382)  can0  4B0   [8]  29 C6 2A 1C 29 C5 2A 13
 (1787840384.187248)  can0  200   [7]  02 17 02 01 02 17 00
 (1787840384.187436)  can0  201   [8]  0C 46 7E A4 2A 01 00 64
 (1787840384.192280)  can0  230   [8]  01 00 99 00 8D 00 00 40
 (1787840384.192396)  can0  231   [4]  14 08 FF FF
 (1787840384.193165)  can0  210   [7]  FF FF 30 A0 90 00 31
 (1787840384.193378)  can0  4B0   [8]  29 C4 2A 1A 29 C1 2A 0D
 (1787840384.197266)  can0  200   [7]  02 17 02 01 02 17 00
 (1787840384.197418)  can0  201   [8]  0C 40 7E A4 2A 01 00 64
 (1787840384.199148)  can0  7E0   [8]  03 22 17 C1 00 00 00 00
 (1787840384.200413)  can0  7E8   [8]  04 62 17 C1 80 00 00 00
 (1787840384.207211)  can0  210   [7]  FF FF 30 A0 90 00 32
 (1787840384.207399)  can0  200   [7]  02 17 02 01 02 17 00
 (1787840384.207633)  can0  201   [8]  0C 40 7E 2C 29 EF 00 64
 (1787840384.207864)  can0  4B0   [8]  29 C0 2A 15 29 B7 2A 00
 (1787840384.216838)  can0  430   [7]  51 A5 00 00 2A 94 00
 (1787840384.217202)  can0  200   [7]  02 17 02 01 02 17 00
 (1787840384.217427)  can0  201   [8]  0C 40 7E 2C 29 EF 00 64
 (1787840384.217684)  can0  230   [8]  01 00 A6 00 8A 00 00 40
 (1787840384.217841)  can0  231   [4]  14 08 FF FF
 (1787840384.221211)  can0  210   [7]  FF FF 30 A0 90 00 33
 (1787840384.221401)  can0  4B0   [8]  29 B7 2A 11 29 A7 2A 01
 (1787840384.227230)  can0  200   [7]  02 1F 02 06 02 1F 00
 (1787840384.227435)  can0  201   [8]  0C 40 7C 88 29 E4 00 64
 (1787840384.228083)  can0  7DF   [8]  02 01 0B 00 00 00 00 00
 (1787840384.228477)  can0  7E8   [8]  03 41 0B 43 00 00 00 00
 (1787840384.233557)  can0  7E0   [8]  03 22 32 01 00 00 00 00
 (1787840384.235209)  can0  210   [7]  FF FF 30 A0 90 00 34
 (1787840384.235423)  can0  4B0   [8]  29 B2 2A 0B 29 A4 29 FD
 (1787840384.237231)  can0  200   [7]  02 1F 02 06 02 1F 00
 (1787840384.237438)  can0  201   [8]  0C 39 7C 88 29 E4 00 64
 (1787840384.240414)  can0  7E8   [8]  05 62 32 01 F0 7E 00 00
 (1787840384.242241)  can0  230   [8]  01 00 AA 00 8A 00 00 40
 (1787840384.242378)  can0  231   [4]  14 08 FF FF
 (1787840384.247220)  can0  200   [7]  02 1F 02 06 02 1F 00
 (1787840384.247429)  can0  201   [8]  0C 39 7C 88 29 E4 00 64
 (1787840384.249219)  can0  210   [7]  FF FF 30 A0 90 00 35
 (1787840384.249429)  can0  4B0   [8]  29 AB 2A 06 29 9B 29 F0
 (1787840384.257240)  can0  200   [7]  02 43 02 29 02 43 00
 (1787840384.257413)  can0  201   [8]  0C 39 7C 74 29 DE 00 64
 (1787840384.263223)  can0  210   [7]  FF FF 30 A0 90 00 36
 (1787840384.263416)  can0  4B0   [8]  29 AA 2A 02 29 97 29 E5
 (1787840384.266870)  can0  430   [7]  4E A8 00 00 2A 94 00
 (1787840384.267207)  can0  200   [7]  02 43 02 29 02 43 00
 (1787840384.267428)  can0  201   [8]  0C 39 7C 74 29 DE 00 64
 (1787840384.267682)  can0  230   [8]  01 00 AD 00 88 00 00 40
 (1787840384.267846)  can0  231   [4]  14 08 FF FF
 (1787840384.268080)  can0  420   [7]  83 C2 00 00 00 00 00
 (1787840384.272053)  can0  7DF   [8]  02 01 05 00 00 00 00 00
 (1787840384.272566)  can0  7E8   [8]  03 41 05 83 00 00 00 00
 (1787840384.277209)  can0  200   [7]  02 48 02 2C 02 48 00
 (1787840384.277413)  can0  201   [8]  0C 32 7B E8 29 D6 00 64
 (1787840384.277636)  can0  210   [7]  FF FF 30 A0 90 00 37
 (1787840384.277873)  can0  4B0   [8]  29 9F 29 FC 29 93 29 F3
 (1787840384.278114)  can0  7DF   [8]  02 01 10 00 00 00 00 00
 (1787840384.278520)  can0  7E8   [8]  04 41 10 01 ED 00 00 00
 (1787840384.287253)  can0  200   [7]  02 48 02 2C 02 48 00
 (1787840384.287425)  can0  201   [8]  0C 32 7B E8 29 D6 00 64
 (1787840384.291242)  can0  210   [7]  FF FF 30 A0 90 00 38
 (1787840384.291437)  can0  4B0   [8]  29 94 29 F9 29 88 29 DD
 (1787840384.292251)  can0  230   [8]  01 00 AD 00 85 00 00 40
 (1787840384.292419)  can0  231   [4]  14 08 FF FF
 (1787840384.297279)  can0  200   [7]  02 48 02 2C 02 48 00
 (1787840384.297404)  can0  201   [8]  0C 32 7B E8 29 D6 00 64
 (1787840384.305262)  can0  210   [7]  FF FF 30 A0 90 00 39
 (1787840384.305453)  can0  4B0   [8]  29 94 29 F1 29 81 29 E1
 (1787840384.307105)  can0  7DF   [8]  02 01 0F 00 00 00 00 00
 (1787840384.307317)  can0  200   [7]  02 44 02 2A 02 44 00
 (1787840384.307541)  can0  201   [8]  0C 7D 7C 74 29 C6 00 64
 (1787840384.307786)  can0  7E8   [8]  03 41 0F 5F 00 00 00 00
 (1787840384.316831)  can0  430   [7]  4E A8 00 00 2A 94 00
 (1787840384.317210)  can0  200   [7]  02 44 02 2A 02 44 00
 (1787840384.317434)  can0  201   [8]  0C 7D 7C 74 29 C6 00 64
 (1787840384.317690)  can0  230   [8]  01 00 B2 00 83 00 00 40
 (1787840384.317841)  can0  231   [4]  14 08 FF FF
 (1787840384.319255)  can0  210   [7]  FF FF 30 A0 90 00 3A
 (1787840384.319457)  can0  4B0   [8]  29 94 29 EF 29 71 29 D4
 (1787840384.327313)  can0  200   [7]  02 36 02 1C 02 36 00
 (1787840384.327425)  can0  201   [8]  0C 7D 82 DC 29 C1 00 64
 (1787840384.327812)  can0  7DF   [8]  02 01 0B 00 00 00 00 00
 (1787840384.328271)  can0  7E8   [8]  03 41 0B 45 00 00 00 00
 (1787840384.333283)  can0  210   [7]  FF FF 30 A0 90 00 3B
 (1787840384.333470)  can0  4B0   [8]  29 88 29 E9 29 69 29 D6
 (1787840384.337208)  can0  200   [7]  02 36 02 1C 02 36 00
 (1787840384.337405)  can0  201   [8]  0C 7D 82 DC 29 C1 00 64
 (1787840384.342279)  can0  230   [8]  01 00 C3 00 81 00 00 40
 (1787840384.342360)  can0  231   [4]  14 08 FF FF
 (1787840384.344569)  can0  7DF   [8]  02 01 10 00 00 00 00 00
 (1787840384.345023)  can0  7E8   [8]  04 41 10 01 CE 00 00 00
 (1787840384.347209)  can0  200   [7]  02 36 02 1C 02 36 00
 (1787840384.347398)  can0  201   [8]  0C E8 82 DC 29 C1 00 64
 (1787840384.347618)  can0  210   [7]  FF FF 30 A0 90 00 3C
 (1787840384.347844)  can0  4B0   [8]  29 87 29 E5 29 72 29 D1
 (1787840384.357225)  can0  200   [7]  02 2F 02 13 02 2F 00
 (1787840384.357402)  can0  201   [8]  0C E8 8B 38 29 B6 00 64
 (1787840384.361377)  can0  210   [7]  FF FF 30 A0 90 00 3D
 (1787840384.361476)  can0  4B0   [8]  29 7F 29 DF 29 71 29 C5
 (1787840384.366819)  can0  430   [7]  4B A7 00 00 2A 94 00
 (1787840384.367189)  can0  200   [7]  02 2F 02 13 02 2F 00
 (1787840384.367415)  can0  201   [8]  0C E8 8B 38 29 B6 00 64
 (1787840384.367655)  can0  230   [8]  01 00 C3 00 81 00 00 40
 (1787840384.367824)  can0  231   [4]  14 08 FF FF
 (1787840384.368054)  can0  420   [7]  83 C2 00 00 00 00 00
 (1787840384.375302)  can0  210   [7]  FF FF 30 A0 90 00 3E
 (1787840384.375495)  can0  4B0   [8]  29 75 29 DB 29 65 29 C1
 (1787840384.377192)  can0  200   [7]  02 2E 02 12 02 2E 00
 (1787840384.377409)  can0  201   [8]  0C E8 89 30 29 AF 00 64
 (1787840384.377687)  can0  7DF   [8]  02 01 10 00 00 00 00 00
 (1787840384.378066)  can0  7E8   [8]  04 41 10 01 BD 00 00 00
 (1787840384.379330)  can0  7DF   [8]  02 01 0B 00 00 00 00 00
 (1787840384.379692)  can0  7E8   [8]  03 41 0B 45 00 00 00 00
 (1787840384.387233)  can0  200   [7]  02 2E 02 12 02 2E 00
 (1787840384.387411)  can0  201   [8]  0D 19 89 30 29 AF 00 64
 (1787840384.389305)  can0  210   [7]  FF FF 30 A0 90 00 3F
 (1787840384.389490)  can0  4B0   [8]  29 6C 29 D9 29 55 29 B8
 (1787840384.392254)  can0  230   [8]  01 00 C5 00 84 00 00 40
 (1787840384.392371)  can0  231   [4]  14 08 FF FF
 (1787840384.397206)  can0  200   [7]  02 2E 02 12 02 2E 00
 (1787840384.397418)  can0  201   [8]  0D 19 89 30 29 AF 00 64
 (1787840384.403301)  can0  210   [7]  FF FF 30 A0 90 00 40
 (1787840384.403504)  can0  4B0   [8]  29 6F 29 D4 29 56 29 C2
 (1787840384.407194)  can0  200   [7]  02 2F 02 11 02 2F 00
 (1787840384.407396)  can0  201   [8]  0D 19 80 D4 29 A2 00 64
 (1787840384.414229)  can0  7E0   [8]  03 22 00 00 00 00 00 00
 (1787840384.416492)  can0  7E8   [8]  07 62 00 00 BE 3F B0 13
 (1787840384.416782)  can0  430   [7]  4E A9 00 00 2A 94 00
 (1787840384.417172)  can0  200   [7]  02 2F 02 11 02 2F 00
 (1787840384.417402)  can0  201   [8]  0D 1F 80 D4 29 A2 00 64
 (1787840384.417624)  can0  210   [7]  FF FF 30 A0 90 00 41
 (1787840384.417871)  can0  230   [8]  01 00 CC 00 82 00 00 40
 (1787840384.418039)  can0  231   [4]  14 08 FF FF
 (1787840384.418265)  can0  4B0   [8]  29 6A 29 CB 29 4B 29 AD
 (1787840384.427195)  can0  200   [7]  02 30 02 11 02 30 00
 (1787840384.427411)  can0  201   [8]  0D 1F 7D 78 29 9A 00 64
 (1787840384.427657)  can0  7DF   [8]  02 01 0B 00 00 00 00 00
 (1787840384.428416)  can0  7E8   [8]  03 41 0B 44 00 00 00 00
 (1787840384.431315)  can0  210   [7]  FF FF 30 A0 90 00 42
 (1787840384.431515)  can0  4B0   [8]  29 5B 29 C8 29 44 29 B4
 (1787840384.437212)  can0  200   [7]  02 30 02 11 02 30 00
 (1787840384.437408)  can0  201   [8]  0D 1F 7D 78 29 9A 00 64
 (1787840384.442221)  can0  230   [8]  01 00 DA 00 82 00 00 40
 (1787840384.442355)  can0  231   [4]  14 08 FF FF
 (1787840384.445327)  can0  210   [7]  FF FF 30 A0 90 00 43
 (1787840384.445530)  can0  4B0   [8]  29 5C 29 C5 29 32 29 A5
 (1787840384.447199)  can0  200   [7]  02 30 02 11 02 30 00
 (1787840384.447415)  can0  201   [8]  0D 1F 7D 78 29 9A 00 64
 (1787840384.449103)  can0  7E0   [8]  03 22 00 02 00 00 00 00
 (1787840384.456359)  can0  7E8   [8]  05 62 00 02 00 00 00 00
 (1787840384.457188)  can0  200   [7]  02 32 02 11 02 32 00
 (1787840384.457395)  can0  201   [8]  0D 28 7E 2C 29 90 00 64
 (1787840384.459332)  can0  210   [7]  FF FF 30 A0 90 00 44
 (1787840384.459537)  can0  4B0   [8]  29 55 29 BE 29 2E 29 A3
 (1787840384.466827)  can0  430   [7]  4E A5 00 00 2A 94 00
 (1787840384.467169)  can0  200   [7]  02 32 02 11 02 32 00
 (1787840384.467400)  can0  201   [8]  0D 28 7E 2C 29 90 00 64
 (1787840384.467642)  can0  230   [8]  01 00 E2 00 80 00 00 40
 (1787840384.467813)  can0  231   [4]  14 08 FF FF
 (1787840384.468042)  can0  420   [7]  83 C3 00 00 00 00 00
 (1787840384.473361)  can0  210   [7]  FF FF 30 A0 90 00 45
 (1787840384.473545)  can0  4B0   [8]  29 56 29 C0 29 27 29 A0
 (1787840384.477178)  can0  200   [7]  02 32 02 11 02 32 00
 (1787840384.477389)  can0  201   [8]  0D 28 7D B4 29 89 00 64
 (1787840384.477976)  can0  7DF   [8]  02 01 10 00 00 00 00 00
 (1787840384.478476)  can0  7E8   [8]  04 41 10 01 A8 00 00 00
 (1787840384.487203)  can0  200   [7]  02 32 02 11 02 32 00
 (1787840384.487392)  can0  201   [8]  0D 32 7D B4 29 89 00 64
 (1787840384.487611)  can0  210   [7]  FF FF 30 A0 90 00 46
 (1787840384.487836)  can0  4B0   [8]  29 52 29 BF 29 25 29 9D
 (1787840384.488507)  can0  7E0   [8]  03 22 00 03 00 00 00 00
 (1787840384.492227)  can0  230   [8]  01 00 E2 00 7E 00 00 40
 (1787840384.492371)  can0  231   [4]  14 08 FF FF
 (1787840384.496346)  can0  7E8   [8]  05 62 00 03 02 00 00 00
 (1787840384.497185)  can0  200   [7]  02 32 02 11 02 32 00
 (1787840384.497382)  can0  201   [8]  0D 32 7D B4 29 89 00 64
 (1787840384.501351)  can0  210   [7]  FF FF 30 A0 90 00 47
 (1787840384.501546)  can0  4B0   [8]  29 50 29 BC 29 29 29 98
 (1787840384.507195)  can0  200   [7]  02 31 02 10 02 31 00
 (1787840384.507390)  can0  201   [8]  0D 32 7D C8 29 88 00 64
 (1787840384.515394)  can0  210   [7]  FF FF 30 A0 90 00 48
 (1787840384.515617)  can0  4B0   [8]  29 4D 29 BB 29 22 29 97
 (1787840384.516830)  can0  430   [7]  52 A6 00 00 2A 94 00
 (1787840384.517187)  can0  200   [7]  02 31 02 10 02 31 00
 (1787840384.517408)  can0  201   [8]  0D 32 7D C8 29 88 00 64
 (1787840384.517651)  can0  230   [8]  01 00 E8 00 7B 00 00 40
 (1787840384.517816)  can0  231   [4]  14 08 FF FF
 (1787840384.523494)  can0  7E0   [8]  03 22 00 05 00 00 00 00
 (1787840384.527196)  can0  200   [7]  02 30 02 0F 02 30 00
 (1787840384.527402)  can0  201   [8]  0D 46 7F 58 29 84 00 64
 (1787840384.528110)  can0  7DF   [8]  02 01 0B 00 00 00 00 00
 (1787840384.528346)  can0  7E8   [8]  04 62 00 05 83 00 00 00
 (1787840384.529343)  can0  210   [7]  FF FF 30 A0 90 00 49
