 (1787839446.078316)  can0  7E8   [8]  04 41 10 00 A8 00 00 00
 (1787839446.127937)  can0  7E8   [8]  03 41 0B 1F 00 00 00 00
 (1787839446.178350)  can0  7E8   [8]  04 41 10 00 A8 00 00 00
 (1787839446.227733)  can0  7E8   [8]  03 41 0B 1F 00 00 00 00
 (1787839446.278383)  can0  7E8   [8]  04 41 10 00 A6 00 00 00
 (1787839446.328474)  can0  7E8   [8]  03 41 0B 1F 00 00 00 00
 (1787839446.378463)  can0  7E8   [8]  04 41 10 00 A8 00 00 00
 (1787839446.427820)  can0  7E8   [8]  03 41 0B 1F 00 00 00 00
 (1787839446.479036)  can0  7E8   [8]  04 41 10 00 A1 00 00 00
 (1787839446.528338)  can0  7E8   [8]  03 41 0B 1F 00 00 00 00
 (1787839446.577775)  can0  7E8   [8]  04 41 10 00 A6 00 00 00
 (1787839446.586781)  can0  7E8   [8]  07 62 00 00 BE 3F B0 13
 (1787839446.618752)  can0  7E8   [8]  03 7F 22 31 00 00 00 00
 (1787839446.627795)  can0  7E8   [8]  03 41 0B 1F 00 00 00 00
 (1787839446.658712)  can0  7E8   [8]  05 62 00 02 00 00 00 00
 (1787839446.678450)  can0  7E8   [8]  04 41 10 00 A8 00 00 00
 (1787839446.698713)  can0  7E8   [8]  05 62 00 03 02 00 00 00
 (1787839446.729088)  can0  7E8   [8]  03 41 0B 1F 00 00 00 00
 (1787839446.770689)  can0  7E8   [8]  04 62 00 05 82 00 00 00
 (1787839446.778811)  can0  7E8   [8]  04 41 10 00 A4 00 00 00
 (1787839446.802684)  can0  7E8   [8]  04 62 00 06 7D 00 00 00
 (1787839446.828322)  can0  7E8   [8]  03 41 0B 1F 00 00 00 00
 (1787839446.842754)  can0  7E8   [8]  04 62 00 07 80 00 00 00
 (1787839446.878271)  can0  7E8   [8]  04 41 10 00 AB 00 00 00
 (1787839446.878870)  can0  7E8   [8]  04 41 42 35 7B 00 00 00
 (1787839446.882781)  can0  7E8   [8]  03 7F 22 31 00 00 00 00
 (1787839446.922774)  can0  7E8   [8]  03 7F 22 31 00 00 00 00
 (1787839446.927898)  can0  7E8   [8]  03 41 0B 1F 00 00 00 00
 (1787839446.962909)  can0  7E8   [8]  03 7F 22 31 00 00 00 00
 (1787839446.977802)  can0  7E8   [8]  04 41 10 00 A6 00 00 00
 (1787839446.994690)  can0  7E8   [8]  04 62 00 0B 1F 00 00 00
 (1787839447.028457)  can0  7E8   [8]  03 41 0B 1F 00 00 00 00
 (1787839447.034683)  can0  7E8   [8]  05 62 00 0C 0B 02 00 00
 (1787839447.074687)  can0  7E8   [8]  04 62 00 0D 00 00 00 00
 (1787839447.078691)  can0  7E8   [8]  04 41 10 00 A6 00 00 00
 (1787839447.106682)  can0  7E8   [8]  04 62 00 0E 93 00 00 00
 (1787839447.129474)  can0  7E8   [8]  03 41 0B 1F 00 00 00 00
 (1787839447.146678)  can0  7E8   [8]  04 62 00 0F 66 00 00 00
 (1787839447.178516)  can0  7E8   [8]  04 41 10 00 A8 00 00 00
 (1787839447.186695)  can0  7E8   [8]  05 62 00 10 00 A8 00 00
 (1787839447.218866)  can0  7E8   [8]  04 62 00 11 1E 00 00 00
 (1787839447.229292)  can0  7E8   [8]  03 41 0B 1F 00 00 00 00
 (1787839447.258759)  can0  7E8   [8]  03 7F 22 31 00 00 00 00
 (1787839447.278245)  can0  7E8   [8]  04 41 10 00 AB 00 00 00
 (1787839447.298707)  can0  7E8   [8]  04 62 00 13 01 00 00 00
 (1787839447.327969)  can0  7E8   [8]  03 41 0B 1F 00 00 00 00
 (1787839447.330761)  can0  7E8   [8]  03 7F 22 31 00 00 00 00
 (1787839447.370781)  can0  7E8   [8]  03 7F 22 31 00 00 00 00
 (1787839447.377859)  can0  7E8   [8]  04 41 10 00 A4 00 00 00
 (1787839447.410761)  can0  7E8   [8]  03 7F 22 31 00 00 00 00
 (1787839447.429758)  can0  7E8   [8]  03 41 0B 1F 00 00 00 00
 (1787839447.442872)  can0  7E8   [8]  03 7F 22 31 00 00 00 00
 (1787839447.477747)  can0  7E8   [8]  04 41 10 00 A6 00 00 00
 (1787839447.482931)  can0  7E8   [8]  03 7F 22 31 00 00 00 00
 (1787839447.522754)  can0  7E8   [8]  03 7F 22 31 00 00 00 00
 (1787839447.528327)  can0  7E8   [8]  03 41 0B 1F 00 00 00 00
 (1787839447.562753)  can0  7E8   [8]  03 7F 22 31 00 00 00 00
 (1787839447.578282)  can0  7E8   [8]  04 41 10 00 A8 00 00 00
 (1787839447.602749)  can0  7E8   [8]  03 7F 22 31 00 00 00 00
 (1787839447.628293)  can0  7E8   [8]  03 41 0B 1F 00 00 00 00
 (1787839447.642675)  can0  7E8   [8]  04 62 00 1C 0A 00 00 00
 (1787839447.682936)  can0  7E8   [8]  03 7F 22 31 00 00 00 00
 (1787839447.714757)  can0  7E8   [8]  03 7F 22 31 00 00 00 00
 (1787839447.728814)  can0  7E8   [8]  03 41 0B 1F 00 00 00 00
 (1787839447.754693)  can0  7E8   [8]  05 62 00 1F 04 30 00 00
 (1787839447.778452)  can0  7E8   [8]  04 41 10 00 A6 00 00 00
 (1787839447.794662)  can0  7E8   [8]  07 62 00 20 80 15 80 11
 (1787839447.834776)  can0  7E8   [8]  05 62 00 21 00 00 00 00
 (1787839447.866736)  can0  7E8   [8]  03 7F 22 31 00 00 00 00
 (1787839447.877969)  can0  7E8   [8]  04 41 10 00 A6 00 00 00
 (1787839447.879073)  can0  7E8   [8]  04 41 42 35 80 00 00 00
 (1787839447.906728)  can0  7E8   [8]  03 7F 22 31 00 00 00 00
 (1787839447.928220)  can0  7E8   [8]  03 41 0B 1F 00 00 00 00
 (1787839447.946702)  can0  7E8   [8]  03 7F 22 31 00 00 00 00
 (1787839447.978739)  can0  7E8   [8]  03 7F 22 31 00 00 00 00
 (1787839448.018717)  can0  7E8   [8]  03 7F 22 31 00 00 00 00
 (1787839448.027652)  can0  7E8   [8]  03 41 0B 1F 00 00 00 00
 (1787839448.050745)  can0  7E8   [8]  03 7F 22 31 00 00 00 00
 (1787839448.078001)  can0  7E8   [8]  04 41 10 00 A6 00 00 00
 (1787839448.090968)  can0  7E8   [8]  03 7F 22 31 00 00 00 00
 (1787839448.130741)  can0  7E8   [8]  03 7F 22 31 00 00 00 00
 (1787839448.170741)  can0  7E8   [8]  03 7F 22 31 00 00 00 00
 (1787839448.177950)  can0  7E8   [8]  04 41 10 00 A6 00 00 00
 (1787839448.202858)  can0  7E8   [8]  03 7F 22 31 00 00 00 00
 (1787839448.228883)  can0  7E8   [8]  03 41 0B 1F 00 00 00 00
 (1787839448.242799)  can0  7E8   [8]  04 62 00 2C 00 00 00 00
 (1787839448.282739)  can0  7E8   [8]  03 7F 22 31 00 00 00 00
 (1787839448.314686)  can0  7E8   [8]  04 62 00 2E 1B 00 00 00
 (1787839448.328177)  can0  7E8   [8]  03 41 0B 1F 00 00 00 00
 (1787839448.354874)  can0  7E8   [8]  03 7F 22 31 00 00 00 00
 (1787839448.377722)  can0  7E8   [8]  04 41 10 00 A8 00 00 00
 (1787839448.394668)  can0  7E8   [8]  04 62 00 30 FF 00 00 00
 (1787839448.429149)  can0  7E8   [8]  03 41 0B 1F 00 00 00 00
 (1787839448.474732)  can0  7E8   [8]  03 7F 22 31 00 00 00 00
 (1787839448.477708)  can0  7E8   [8]  04 41 10 00 A8 00 00 00
 (1787839448.506722)  can0  7E8   [8]  03 7F 22 31 00 00 00 00
 (1787839448.529748)  can0  7E8   [8]  03 41 0B 1F 00 00 00 00
 (1787839448.546747)  can0  7E8   [8]  03 7F 22 31 00 00 00 00
 (1787839448.579268)  can0  7E8   [8]  03 7F 22 31 00 00 00 00
 (1787839448.618778)  can0  7E8   [8]  03 7F 22 31 00 00 00 00
 (1787839448.628256)  can0  7E8   [8]  03 41 0B 1F 00 00 00 00
 (1787839448.658716)  can0  7E8   [8]  03 7F 22 31 00 00 00 00
 (1787839448.678403)  can0  7E8   [8]  04 41 10 00 A6 00 00 00
 (1787839448.691392)  can0  7E8   [8]  03 7F 22 31 00 00 00 00
 (1787839448.730725)  can0  7E8   [8]  03 7F 22 31 00 00 00 00
 (1787839448.770723)  can0  7E8   [8]  03 7F 22 31 00 00 00 00
 (1787839448.778413)  can0  7E8   [8]  04 41 10 00 A6 00 00 00
 (1787839448.802723)  can0  7E8   [8]  03 7F 22 31 00 00 00 00
 (1787839448.828231)  can0  7E8   [8]  03 41 0B 1F 00 00 00 00
 (1787839448.842704)  can0  7E8   [8]  05 62 00 3C 15 0A 00 00
 (1787839448.882719)  can0  7E8   [8]  03 7F 22 31 00 00 00 00
 (1787839448.914716)  can0  7E8   [8]  03 7F 22 31 00 00 00 00
 (1787839448.927700)  can0  7E8   [8]  03 41 0B 1F 00 00 00 00
 (1787839448.954714)  can0  7E8   [8]  03 7F 22 31 00 00 00 00
 (1787839448.978163)  can0  7E8   [8]  04 41 10 00 A6 00 00 00
 (1787839448.994639)  can0  7E8   [8]  07 62 00 40 68 00 00 00
 (1787839449.034730)  can0  7E8   [8]  03 7F 22 31 00 00 00 00
 (1787839449.066804)  can0  7E8   [8]  05 62 00 42 35 77 00 00
 (1787839449.077741)  can0  7E8   [8]  04 41 10 00 A4 00 00 00
 (1787839449.106663)  can0  7E8   [8]  05 62 00 43 00 2E 00 00
 (1787839449.128269)  can0  7E8   [8]  03 41 0B 1F 00 00 00 00
 (1787839449.146751)  can0  7E8   [8]  03 7F 22 31 00 00 00 00
 (1787839449.178281)  can0  7E8   [8]  04 41 10 00 A6 00 00 00
 (1787839449.218716)  can0  7E8   [8]  03 7F 22 31 00 00 00 00
 (1787839449.227865)  can0  7E8   [8]  03 41 0B 1F 00 00 00 00
 (1787839449.258700)  can0  7E8   [8]  03 7F 22 31 00 00 00 00
 (1787839449.278633)  can0  7E8   [8]  04 41 10 00 AB 00 00 00
 (1787839449.290943)  can0  7E8   [8]  03 7F 22 31 00 00 00 00
 (1787839449.330715)  can0  7E8   [8]  03 7F 22 31 00 00 00 00
 (1787839449.370700)  can0  7E8   [8]  03 7F 22 31 00 00 00 00
 (1787839449.378073)  can0  7E8   [8]  04 41 10 00 A4 00 00 00
 (1787839449.402707)  can0  7E8   [8]  03 7F 22 31 00 00 00 00
 (1787839449.428572)  can0  7E8   [8]  03 41 0B 1F 00 00 00 00
 (1787839449.442929)  can0  7E8   [8]  03 7F 22 31 00 00 00 00
 (1787839449.478022)  can0  7E8   [8]  04 41 10 00 A8 00 00 00
 (1787839449.482693)  can0  7E8   [8]  03 7F 22 31 00 00 00 00
 (1787839449.522720)  can0  7E8   [8]  03 7F 22 31 00 00 00 00
 (1787839449.528145)  can0  7E8   [8]  03 41 0B 1F 00 00 00 00
 (1787839449.562765)  can0  7E8   [8]  03 7F 22 31 00 00 00 00
 (1787839449.577812)  can0  7E8   [8]  04 41 10 00 A8 00 00 00
 (1787839449.594731)  can0  7E8   [8]  03 7F 22 31 00 00 00 00
 (1787839449.629254)  can0  7E8   [8]  03 41 0B 1F 00 00 00 00
 (1787839449.634727)  can0  7E8   [8]  03 7F 22 31 00 00 00 00
 (1787839449.674802)  can0  7E8   [8]  03 7F 22 31 00 00 00 00
 (1787839449.678659)  can0  7E8   [8]  04 41 10 00 A4 00 00 00
 (1787839449.714803)  can0  7E8   [8]  03 7F 22 31 00 00 00 00
 (1787839449.728178)  can0  7E8   [8]  03 41 0B 1F 00 00 00 00
 (1787839449.754693)  can0  7E8   [8]  03 7F 22 31 00 00 00 00
 (1787839449.779218)  can0  7E8   [8]  04 41 10 00 AB 00 00 00
 (1787839449.786684)  can0  7E8   [8]  03 7F 22 31 00 00 00 00
 (1787839449.826679)  can0  7E8   [8]  03 7F 22 31 00 00 00 00
 (1787839449.828151)  can0  7E8   [8]  03 41 0B 1F 00 00 00 00
 (1787839449.866659)  can0  7E8   [8]  03 7F 22 31 00 00 00 00
 (1787839449.878830)  can0  7E8   [8]  04 41 10 00 A4 00 00 00
 (1787839449.898706)  can0  7E8   [8]  03 7F 22 31 00 00 00 00
 (1787839449.928084)  can0  7E8   [8]  03 41 0B 1F 00 00 00 00
 (1787839449.938715)  can0  7E8   [8]  03 7F 22 31 00 00 00 00
 (1787839449.978676)  can0  7E8   [8]  03 7F 22 31 00 00 00 00
 (1787839450.018666)  can0  7E8   [8]  03 7F 22 31 00 00 00 00
 (1787839450.028572)  can0  7E8   [8]  03 41 0B 1F 00 00 00 00
 (1787839450.050707)  can0  7E8   [8]  03 7F 22 31 00 00 00 00
 (1787839450.078659)  can0  7E8   [8]  04 41 10 00 A6 00 00 00
 (1787839450.090909)  can0  7E8   [8]  03 7F 22 31 00 00 00 00
 (1787839450.122930)  can0  7E8   [8]  03 7F 22 31 00 00 00 00
 (1787839450.129072)  can0  7E8   [8]  03 41 0B 1F 00 00 00 00
 (1787839450.162679)  can0  7E8   [8]  03 7F 22 31 00 00 00 00
 (1787839450.178285)  can0  7E8   [8]  04 41 10 00 A8 00 00 00
 (1787839450.202694)  can0  7E8   [8]  03 7F 22 31 00 00 00 00
 (1787839450.231256)  can0  7E8   [8]  03 41 0B 1F 00 00 00 00
 (1787839450.242680)  can0  7E8   [8]  03 7F 22 31 00 00 00 00
 (1787839450.274790)  can0  7E8   [8]  03 7F 22 31 00 00 00 00
 (1787839450.278216)  can0  7E8   [8]  04 41 10 00 A6 00 00 00
 (1787839450.314698)  can0  7E8   [8]  03 7F 22 31 00 00 00 00
 (1787839450.328143)  can0  7E8   [8]  03 41 0B 1F 00 00 00 00
 (1787839450.354686)  can0  7E8   [8]  03 7F 22 31 00 00 00 00
 (1787839450.378614)  can0  7E8   [8]  04 41 10 00 A8 00 00 00
 (1787839450.386718)  can0  7E8   [8]  03 7F 22 31 00 00 00 00
 (1787839450.426659)  can0  7E8   [8]  03 7F 22 31 00 00 00 00
 (1787839450.428786)  can0  7E8   [8]  03 41 0B 1F 00 00 00 00
 (1787839450.466636)  can0  7E8   [8]  03 7F 22 31 00 00 00 00
 (1787839450.477728)  can0  7E8   [8]  04 41 10 00 A6 00 00 00
 (1787839450.506660)  can0  7E8   [8]  03 7F 22 31 00 00 00 00
 (1787839450.528054)  can0  7E8   [8]  03 41 0B 1F 00 00 00 00
 (1787839450.546649)  can0  7E8   [8]  03 7F 22 31 00 00 00 00
 (1787839450.578651)  can0  7E8   [8]  03 7F 22 31 00 00 00 00
 (1787839450.618661)  can0  7E8   [8]  03 7F 22 31 00 00 00 00
 (1787839450.628153)  can0  7E8   [8]  03 41 0B 1F 00 00 00 00
 (1787839450.650677)  can0  7E8   [8]  03 7F 22 31 00 00 00 00
 (1787839450.678629)  can0  7E8   [8]  04 41 10 00 A6 00 00 00
 (1787839450.690896)  can0  7E8   [8]  03 7F 22 31 00 00 00 00
 (1787839450.730674)  can0  7E8   [8]  03 7F 22 31 00 00 00 00
 (1787839450.770768)  can0  7E8   [8]  03 7F 22 31 00 00 00 00
 (1787839450.778691)  can0  7E8   [8]  04 41 10 00 AB 00 00 00
 (1787839450.802720)  can0  7E8   [8]  03 7F 22 31 00 00 00 00
 (1787839450.828600)  can0  7E8   [8]  03 41 0B 1F 00 00 00 00
 (1787839450.842672)  can0  7E8   [8]  03 7F 22 31 00 00 00 00
 (1787839450.882660)  can0  7E8   [8]  03 7F 22 31 00 00 00 00
 (1787839450.914672)  can0  7E8   [8]  03 7F 22 31 00 00 00 00
 (1787839450.928273)  can0  7E8   [8]  03 41 0B 1F 00 00 00 00
 (1787839450.954658)  can0  7E8   [8]  03 7F 22 31 00 00 00 00
 (1787839450.977832)  can0  7E8   [8]  04 41 10 00 A8 00 00 00
 (1787839450.994678)  can0  7E8   [8]  03 7F 22 31 00 00 00 00
 (1787839451.034831)  can0  7E8   [8]  03 7F 22 31 00 00 00 00
 (1787839451.066625)  can0  7E8   [8]  03 7F 22 31 00 00 00 00
 (1787839451.078904)  can0  7E8   [8]  04 41 10 00 A4 00 00 00
 (1787839451.106640)  can0  7E8   [8]  03 7F 22 31 00 00 00 00
 (1787839451.127582)  can0  7E8   [8]  03 41 0B 1F 00 00 00 00
 (1787839451.138706)  can0  7E8   [8]  03 7F 22 31 00 00 00 00
 (1787839451.178694)  can0  7E8   [8]  03 7F 22 31 00 00 00 00
 (1787839451.218853)  can0  7E8   [8]  03 7F 22 31 00 00 00 00
 (1787839451.228371)  can0  7E8   [8]  03 41 0B 1F 00 00 00 00
 (1787839451.258649)  can0  7E8   [8]  03 7F 22 31 00 00 00 00
 (1787839451.278262)  can0  7E8   [8]  04 41 10 00 A6 00 00 00
 (1787839451.290881)  can0  7E8   [8]  03 7F 22 31 00 00 00 00
 (1787839451.330679)  can0  7E8   [8]  03 7F 22 31 00 00 00 00
 (1787839451.362661)  can0  7E8   [8]  03 7F 22 31 00 00 00 00
 (1787839451.378044)  can0  7E8   [8]  04 41 10 00 A1 00 00 00
 (1787839451.402670)  can0  7E8   [8]  03 7F 22 31 00 00 00 00
 (1787839451.428766)  can0  7E8   [8]  03 41 0B 1F 00 00 00 00
 (1787839451.442660)  can0  7E8   [8]  03 7F 22 31 00 00 00 00
 (1787839451.482990)  can0  7E8   [8]  03 7F 22 31 00 00 00 00
 (1787839451.514647)  can0  7E8   [8]  03 7F 22 31 00 00 00 00
 (1787839451.527712)  can0  7E8   [8]  03 41 0B 1F 00 00 00 00
 (1787839451.554648)  can0  7E8   [8]  03 7F 22 31 00 00 00 00
 (1787839451.577777)  can0  7E8   [8]  04 41 10 00 A6 00 00 00
 (1787839451.594649)  can0  7E8   [8]  03 7F 22 31 00 00 00 00
 (1787839451.627600)  can0  7E8   [8]  03 41 0B 1F 00 00 00 00
 (1787839451.634648)  can0  7E8   [8]  03 7F 22 31 00 00 00 00
 (1787839451.675063)  can0  7E8   [8]  03 7F 22 31 00 00 00 00
 (1787839451.678595)  can0  7E8   [8]  04 41 10 00 A6 00 00 00
 (1787839451.706616)  can0  7E8   [8]  03 7F 22 31 00 00 00 00
 (1787839451.728735)  can0  7E8   [8]  03 41 0B 1F 00 00 00 00
 (1787839451.746627)  can0  7E8   [8]  03 7F 22 31 00 00 00 00
 (1787839451.778648)  can0  7E8   [8]  03 7F 22 31 00 00 00 00
 (1787839451.826607)  can0  7E8   [8]  03 7F 22 31 00 00 00 00
 (1787839451.828165)  can0  7E8   [8]  03 41 0B 1F 00 00 00 00
 (1787839451.858663)  can0  7E8   [8]  03 7F 22 31 00 00 00 00
 (1787839451.878047)  can0  7E8   [8]  04 41 10 00 A4 00 00 00
 (1787839451.878682)  can0  7E8   [8]  04 41 42 35 80 00 00 00
 (1787839451.898650)  can0  7E8   [8]  03 7F 22 31 00 00 00 00
 (1787839451.929045)  can0  7E8   [8]  03 41 0B 1F 00 00 00 00
 (1787839451.938677)  can0  7E8   [8]  03 7F 22 31 00 00 00 00
 (1787839451.978628)  can0  7E8   [8]  03 7F 22 31 00 00 00 00
 (1787839452.010650)  can0  7E8   [8]  03 7F 22 31 00 00 00 00
 (1787839452.028504)  can0  7E8   [8]  03 41 0B 1F 00 00 00 00
 (1787839452.050649)  can0  7E8   [8]  03 7F 22 31 00 00 00 00
 (1787839452.078629)  can0  7E8   [8]  04 41 10 00 A4 00 00 00
 (1787839452.090874)  can0  7E8   [8]  03 7F 22 31 00 00 00 00
 (1787839452.130635)  can0  7E8   [8]  03 7F 22 31 00 00 00 00
 (1787839452.162649)  can0  7E8   [8]  03 7F 22 31 00 00 00 00
 (1787839452.178262)  can0  7E8   [8]  04 41 10 00 A8 00 00 00
 (1787839452.202672)  can0  7E8   [8]  03 7F 22 31 00 00 00 00
 (1787839452.229245)  can0  7E8   [8]  03 41 0B 1F 00 00 00 00
 (1787839452.242602)  can0  7E8   [8]  03 7F 22 31 00 00 00 00
 (1787839452.274652)  can0  7E8   [8]  03 7F 22 31 00 00 00 00
 (1787839452.278197)  can0  7E8   [8]  04 41 10 00 A4 00 00 00
 (1787839452.314638)  can0  7E8   [8]  03 7F 22 31 00 00 00 00
 (1787839452.327681)  can0  7E8   [8]  03 41 0B 1F 00 00 00 00
 (1787839452.346626)  can0  7E8   [8]  03 7F 22 31 00 00 00 00
 (1787839452.378562)  can0  7E8   [8]  04 41 10 00 A4 00 00 00
 (1787839452.386797)  can0  7E8   [8]  03 7F 22 31 00 00 00 00
 (1787839452.426615)  can0  7E8   [8]  03 7F 22 31 00 00 00 00
 (1787839452.427822)  can0  7E8   [8]  03 41 0B 1F 00 00 00 00
 (1787839452.466588)  can0  7E8   [8]  03 7F 22 31 00 00 00 00
 (1787839452.478530)  can0  7E8   [8]  04 41 10 00 A6 00 00 00
 (1787839452.498612)  can0  7E8   [8]  03 7F 22 31 00 00 00 00
 (1787839452.528084)  can0  7E8   [8]  03 41 0B 1F 00 00 00 00
 (1787839452.538642)  can0  7E8   [8]  03 7F 22 31 00 00 00 00
 (1787839452.578610)  can0  7E8   [8]  03 7F 22 31 00 00 00 00
 (1787839452.618604)  can0  7E8   [8]  03 7F 22 31 00 00 00 00
 (1787839452.628545)  can0  7E8   [8]  03 41 0B 1F 00 00 00 00
 (1787839452.658667)  can0  7E8   [8]  03 7F 22 31 00 00 00 00
 (1787839452.677921)  can0  7E8   [8]  04 41 10 01 25 00 00 00
 (1787839452.698748)  can0  7E8   [8]  03 7F 22 31 00 00 00 00
 (1787839452.728728)  can0  7E8   [8]  03 41 0B 22 00 00 00 00
 (1787839452.730692)  can0  7E8   [8]  03 7F 22 31 00 00 00 00
 (1787839452.770634)  can0  7E8   [8]  03 7F 22 31 00 00 00 00
 (1787839452.777866)  can0  7E8   [8]  04 41 10 02 0F 00 00 00
 (1787839452.810623)  can0  7E8   [8]  03 7F 22 31 00 00 00 00
 (1787839452.829156)  can0  7E8   [8]  03 41 0B 27 00 00 00 00
 (1787839452.842613)  can0  7E8   [8]  03 7F 22 31 00 00 00 00
 (1787839452.878914)  can0  7E8   [8]  04 41 10 01 18 00 00 00
 (1787839452.882625)  can0  7E8   [8]  03 7F 22 31 00 00 00 00
 (1787839452.922601)  can0  7E8   [8]  03 7F 22 31 00 00 00 00
 (1787839452.928021)  can0  7E8   [8]  03 41 0B 28 00 00 00 00
 (1787839452.954619)  can0  7E8   [8]  03 7F 22 31 00 00 00 00
 (1787839452.978585)  can0  7E8   [8]  04 41 10 00 F2 00 00 00
 (1787839452.994588)  can0  7E8   [8]  03 7F 22 31 00 00 00 00
 (1787839453.034670)  can0  7E8   [8]  03 7F 22 31 00 00 00 00
 (1787839453.074603)  can0  7E8   [8]  03 7F 22 31 00 00 00 00
 (1787839453.078553)  can0  7E8   [8]  04 41 10 00 E9 00 00 00
 (1787839453.106581)  can0  7E8   [8]  03 7F 22 31 00 00 00 00
 (1787839453.127994)  can0  7E8   [8]  03 41 0B 28 00 00 00 00
 (1787839453.146588)  can0  7E8   [8]  03 7F 22 31 00 00 00 00
 (1787839453.178726)  can0  7E8   [8]  03 7F 22 31 00 00 00 00
 (1787839453.218596)  can0  7E8   [8]  03 7F 22 31 00 00 00 00
 (1787839453.230730)  can0  7E8   [8]  03 41 0B 27 00 00 00 00
 (1787839453.258596)  can0  7E8   [8]  03 7F 22 31 00 00 00 00
 (1787839453.278779)  can0  7E8   [8]  04 41 10 01 3C 00 00 00
 (1787839453.298687)  can0  7E8   [8]  03 7F 22 31 00 00 00 00
 (1787839453.330625)  can0  7E8   [8]  03 7F 22 31 00 00 00 00
 (1787839453.370621)  can0  7E8   [8]  03 7F 22 31 00 00 00 00
 (1787839453.377924)  can0  7E8   [8]  04 41 10 01 0B 00 00 00
 (1787839453.402597)  can0  7E8   [8]  03 7F 22 31 00 00 00 00
 (1787839453.428295)  can0  7E8   [8]  03 41 0B 29 00 00 00 00
 (1787839453.442611)  can0  7E8   [8]  03 7F 22 31 00 00 00 00
 (1787839453.482630)  can0  7E8   [8]  03 7F 22 31 00 00 00 00
 (1787839453.514621)  can0  7E8   [8]  03 7F 22 31 00 00 00 00
 (1787839453.529123)  can0  7E8   [8]  03 41 0B 29 00 00 00 00
 (1787839453.554592)  can0  7E8   [8]  03 7F 22 31 00 00 00 00
 (1787839453.578591)  can0  7E8   [8]  04 41 10 00 EC 00 00 00
 (1787839453.594600)  can0  7E8   [8]  03 7F 22 31 00 00 00 00
 (1787839453.629730)  can0  7E8   [8]  03 41 0B 29 00 00 00 00
 (1787839453.674582)  can0  7E8   [8]  03 7F 22 31 00 00 00 00
 (1787839453.678499)  can0  7E8   [8]  04 41 10 01 18 00 00 00
 (1787839453.706577)  can0  7E8   [8]  03 7F 22 31 00 00 00 00
 (1787839453.727706)  can0  7E8   [8]  03 41 0B 2A 00 00 00 00
 (1787839453.746552)  can0  7E8   [8]  03 7F 22 31 00 00 00 00
 (1787839453.778606)  can0  7E8   [8]  03 7F 22 31 00 00 00 00
 (1787839453.818577)  can0  7E8   [8]  03 7F 22 31 00 00 00 00
 (1787839453.827610)  can0  7E8   [8]  03 41 0B 2A 00 00 00 00
 (1787839453.850680)  can0  7E8   [8]  03 7F 22 31 00 00 00 00
 (1787839453.878942)  can0  7E8   [8]  04 41 10 01 04 00 00 00
 (1787839453.890812)  can0  7E8   [8]  03 7F 22 31 00 00 00 00
 (1787839453.930559)  can0  7E8   [8]  03 7F 22 31 00 00 00 00
 (1787839453.962587)  can0  7E8   [8]  03 7F 22 31 00 00 00 00
 (1787839453.978488)  can0  7E8   [8]  04 41 10 01 11 00 00 00
 (1787839454.002578)  can0  7E8   [8]  03 7F 22 31 00 00 00 00
 (1787839454.027896)  can0  7E8   [8]  03 41 0B 2A 00 00 00 00
 (1787839454.042610)  can0  7E8   [8]  03 7F 22 31 00 00 00 00
 (1787839454.074576)  can0  7E8   [8]  03 7F 22 31 00 00 00 00
 (1787839454.079227)  can0  7E8   [8]  04 41 10 01 01 00 00 00
 (1787839454.114547)  can0  7E8   [8]  03 7F 22 31 00 00 00 00
 (1787839454.128102)  can0  7E8   [8]  03 41 0B 2A 00 00 00 00
 (1787839454.146577)  can0  7E8   [8]  03 7F 22 31 00 00 00 00
 (1787839454.177637)  can0  7E8   [8]  04 41 10 01 01 00 00 00
 (1787839454.186571)  can0  7E8   [8]  03 7F 22 31 00 00 00 00
 (1787839454.226545)  can0  7E8   [8]  03 7F 22 31 00 00 00 00
 (1787839454.228651)  can0  7E8   [8]  03 41 0B 2A 00 00 00 00
 (1787839454.258584)  can0  7E8   [8]  03 7F 22 31 00 00 00 00
 (1787839454.278517)  can0  7E8   [8]  04 41 10 00 F8 00 00 00
 (1787839454.298569)  can0  7E8   [8]  03 7F 22 31 00 00 00 00
 (1787839454.328880)  can0  7E8   [8]  03 41 0B 2B 00 00 00 00
 (1787839454.338557)  can0  7E8   [8]  03 7F 22 31 00 00 00 00
 (1787839454.370571)  can0  7E8   [8]  03 7F 22 31 00 00 00 00
 (1787839454.378195)  can0  7E8   [8]  04 41 10 01 08 00 00 00
 (1787839454.410578)  can0  7E8   [8]  03 7F 22 31 00 00 00 00
 (1787839454.428776)  can0  7E8   [8]  03 41 0B 2B 00 00 00 00
 (1787839454.450570)  can0  7E8   [8]  03 7F 22 31 00 00 00 00
 (1787839454.478223)  can0  7E8   [8]  04 41 10 01 01 00 00 00
 (1787839454.482607)  can0  7E8   [8]  03 7F 22 31 00 00 00 00
 (1787839454.522580)  can0  7E8   [8]  03 7F 22 31 00 00 00 00
 (1787839454.527624)  can0  7E8   [8]  03 41 0B 2B 00 00 00 00
 (1787839454.562555)  can0  7E8   [8]  03 7F 22 31 00 00 00 00
 (1787839454.578645)  can0  7E8   [8]  04 41 10 01 01 00 00 00
 (1787839454.594598)  can0  7E8   [8]  03 7F 22 31 00 00 00 00
 (1787839454.627717)  can0  7E8   [8]  03 41 0B 2B 00 00 00 00
 (1787839454.634582)  can0  7E8   [8]  03 7F 22 31 00 00 00 00
 (1787839454.674788)  can0  7E8   [8]  03 7F 22 31 00 00 00 00
 (1787839454.678528)  can0  7E8   [8]  04 41 10 00 FE 00 00 00
 (1787839454.706561)  can0  7E8   [8]  03 7F 22 31 00 00 00 00
 (1787839454.727838)  can0  7E8   [8]  03 41 0B 2B 00 00 00 00
 (1787839454.746543)  can0  7E8   [8]  03 7F 22 31 00 00 00 00
 (1787839454.778574)  can0  7E8   [8]  04 41 10 01 01 00 00 00
 (1787839454.786564)  can0  7E8   [8]  03 7F 22 31 00 00 00 00
 (1787839454.818561)  can0  7E8   [8]  03 7F 22 31 00 00 00 00
 (1787839454.827896)  can0  7E8   [8]  03 41 0B 2B 00 00 00 00
 (1787839454.858571)  can0  7E8   [8]  03 7F 22 31 00 00 00 00
 (1787839454.878510)  can0  7E8   [8]  04 41 10 01 0B 00 00 00
 (1787839454.898632)  can0  7E8   [8]  03 7F 22 31 00 00 00 00
 (1787839454.927873)  can0  7E8   [8]  03 41 0B 2B 00 00 00 00
 (1787839454.938570)  can0  7E8   [8]  03 7F 22 31 00 00 00 00
 (1787839454.970580)  can0  7E8   [8]  03 7F 22 31 00 00 00 00
 (1787839454.979399)  can0  7E8   [8]  04 41 10 01 08 00 00 00
 (1787839455.010533)  can0  7E8   [8]  03 7F 22 31 00 00 00 00
 (1787839455.028213)  can0  7E8   [8]  03 41 0B 2B 00 00 00 00
 (1787839455.042558)  can0  7E8   [8]  03 7F 22 31 00 00 00 00
 (1787839455.079527)  can0  7E8   [8]  04 41 10 01 04 00 00 00
 (1787839455.122539)  can0  7E8   [8]  03 7F 22 31 00 00 00 00
 (1787839455.127876)  can0  7E8   [8]  03 41 0B 2B 00 00 00 00
 (1787839455.154551)  can0  7E8   [8]  03 7F 22 31 00 00 00 00
 (1787839455.178499)  can0  7E8   [8]  04 41 10 01 0E 00 00 00
 (1787839455.194550)  can0  7E8   [8]  03 7F 22 31 00 00 00 00
 (1787839455.227868)  can0  7E8   [8]  03 41 0B 2C 00 00 00 00
 (1787839455.234555)  can0  7E8   [8]  03 7F 22 31 00 00 00 00
 (1787839455.266651)  can0  7E8   [8]  03 7F 22 31 00 00 00 00
 (1787839455.279119)  can0  7E8   [8]  04 41 10 01 11 00 00 00
 (1787839455.306547)  can0  7E8   [8]  03 7F 22 31 00 00 00 00
 (1787839455.327844)  can0  7E8   [8]  03 41 0B 2C 00 00 00 00
 (1787839455.346536)  can0  7E8   [8]  03 7F 22 31 00 00 00 00
 (1787839455.379113)  can0  7E8   [8]  04 41 10 01 11 00 00 00
 (1787839455.386551)  can0  7E8   [8]  03 7F 22 31 00 00 00 00
 (1787839455.418675)  can0  7E8   [8]  03 7F 22 31 00 00 00 00
 (1787839455.428707)  can0  7E8   [8]  03 41 0B 2C 00 00 00 00
 (1787839455.458554)  can0  7E8   [8]  03 7F 22 31 00 00 00 00
 (1787839455.478657)  can0  7E8   [8]  04 41 10 01 11 00 00 00
